EXPLAIN
TAG	EISPOT
TITLE	LABEL	Potentiostatic EIS	Test Identifier
DATE	LABEL	17.7.2024	Date
TIME	LABEL	13:25:08	Time
NOTES	NOTES	1	Notes...
	
PSTAT	PSTAT	IFC1010-34090	Potentiostat
VDC	POTEN	-2.00000E-001	F	A Potential (V)
FREQINIT	QUANT	1.00000E+005	Initial Freq. (Hz)
FREQFINAL	QUANT	1.00000E+000	Final Freq. (Hz)
PTSPERDEC	QUANT	1.00000E+001	Points/decade
VAC	QUANT	1.00000E+001	AC Voltage (mV rms)
AREA	QUANT	1.00000E+000	Sample Area (cm^2)
SPEED	SELECTOR	1	Optimize for:
DRIFTCOR	SELECTOR	0	Drift Correction
THD	SELECTOR	0	THD
ZGUESS	QUANT	1.00000E+002	Estimated Z (ohms)
EOC	QUANT	0.7205974	Open Circuit (V)
SEQUENCER	TOGGLE	TRUE	Run as Sequence
PSTATMODEL	IQUANT	64	Pstat Model
PSTATSECTION	LABEL	IFC1010-34090	Pstat Section
PSTATSERIALNO	LABEL	34090	Pstat Serial Number
CTRLMODE	IQUANT	1	Control Mode
ELECTROMETER	IQUANT	0	RE=0 or CS=1
IESTAB	IQUANT	0	I/E Stability
CASPEED	IQUANT	3	Control Amp Speed
CONVENTION	IQUANT	1	Current Convention
ICHRANGE	IQUANT	2	Ich Range
ICHRANGEMODE	TOGGLE	F	Ich Auto Range
ICHOFFSETENABLE	TOGGLE	T	Ich Offset Enable
ICHOFFSET	QUANT	0	Ich Offset (V)
ICHFILTER	IQUANT	4	Ich Filter
VCHRANGE	IQUANT	2	Vch Range
VCHRANGEMODE	TOGGLE	F	Vch Auto Range
VCHOFFSETENABLE	TOGGLE	T	Vch Offset Enable
VCHOFFSET	QUANT	0	Vch Offset (V)
VCHFILTER	IQUANT	4	Vch Filter
IERANGELOWERLIMIT	IQUANT	4	I/E Range Lower Limit
IERANGEMODE	TOGGLE	F	I/E AutoRange
IERANGE	IQUANT	11	I/E Range
ACHSELECT	IQUANT	0	Ach Select
ACHRANGE	IQUANT	2	Ach Range
ACHOFFSETENABLE	TOGGLE	F	Ach Offset Enable
ACHOFFSET	QUANT	0	Ach Offset (V)
ACHFILTER	IQUANT	1	Ach Filter
SENSECABLEID	IQUANT	13	Sense Cable ID
PWRCABLEID	IQUANT	13	Power Cable ID
DCCALDATE	LABEL	1/30/2024	DC Calibration Date
ACCALDATE	LABEL	1/8/2024	AC Calibration Date
FRAMEWORKVERSION	LABEL	7.10.3	Framework Version
INSTRUMENTVERSION	LABEL	4.91	Instrument Version
COMMVERSION	LABEL	3.10	Communications Version
CPUPLDVERSION	LABEL	2.22	CPU PLD Version
CTRLPLDVERSION	LABEL	0.00	CTRL PLD Version
PSTATPLDVERSION	LABEL	0.00	PSTAT PLD Version
ZCURVE	TABLE
	Pt	Time	Freq	Zreal	Zimag	Zsig	Zmod	Zphz	Idc	Vdc	IERange	Imod	Vmod	Temp
	#	s	Hz	ohm	ohm	V	ohm	°	A	V	#	A	V	°C
	0	4	100019.5	6.76942	-1.065961	1	6.852833	-8.94872	-2.455487E-005	-0.1995511	10	0.0014618	0.0100002	1467.793
	1	5	79511.72	6.724139	-1.023869	1	6.801643	-8.657796	-2.411513E-005	-0.1996571	10	0.0017321	0.0117674	1467.883
	2	7	63105.47	6.732701	-1.017188	1	6.809107	-8.591372	-2.443485E-005	-0.1996127	10	0.0016756	0.0114006	1468.245
	3	8	50214.84	6.753499	-1.057884	1	6.835852	-8.902603	-2.236379E-005	-0.1995482	10	0.0016147	0.011032	1468.335
	4	10	39902.34	6.79431	-1.142543	1	6.889707	-9.54565	-2.211694E-005	-0.199653	10	0.0015581	0.0107316	1468.335
	5	11	31699.22	6.854982	-1.269223	1	6.971492	-10.48971	-2.241618E-005	-0.1996179	10	0.0015052	0.0104913	1467.703
	6	12	25136.72	6.935441	-1.443309	1	7.084031	-11.75582	-2.355988E-005	-0.1996824	10	0.0014503	0.0102723	1468.245
	7	14	19980.47	7.041629	-1.665204	1	7.235844	-13.30488	-2.169118E-005	-0.1996692	10	0.0014084	0.0101902	1467.703
	8	15	15878.91	7.1759	-1.939285	1	7.433329	-15.12291	-2.168898E-005	-0.1996135	10	0.0013566	0.0100834	1468.335
	9	17	12597.66	7.352204	-2.277616	1	7.696911	-17.21229	-2.058406E-005	-0.1995908	10	0.0013016	0.010018	1468.245
	10	18	10019.53	7.573812	-2.676568	1	8.032847	-19.46329	-2.212333E-005	-0.1996918	10	0.0012465	0.0100124	1468.245
	11	19	7928.241	7.866889	-3.157931	1	8.477056	-21.87154	-1.923812E-005	-0.1996944	10	0.0011742	0.0099538	1468.335
	12	21	6307.871	8.242843	-3.697178	1	9.034023	-24.15776	-1.910824E-005	-0.1996915	10	0.0011051	0.0099831	1467.703
	13	22	5034.722	8.711822	-4.281349	1	9.707	-26.17141	-2.043799E-005	-0.1996713	10	0.0009969	0.0097027	1468.335
	14	24	3993.056	9.316045	-4.923055	1	10.53685	-27.85417	-2.029E-005	-0.1996724	10	0.0009601	0.0101323	1467.883
	15	25	3144.055	10.06709	-5.602907	1	11.52124	-29.09841	-2.039414E-005	-0.1997248	10	0.0008698	0.0100311	1468.064
	16	27	2519.531	10.87192	-6.230509	1	12.53068	-29.81627	-2.039678E-005	-0.1997261	10	0.0007971	0.0099939	1468.155
	17	28	2000.762	11.79269	-6.871006	1	13.64838	-30.2272	-2.024667E-005	-0.199724	10	0.0007308	0.0099784	1467.612
	18	29	1580.669	12.79983	-7.523556	1	14.8472	-30.44641	-2.009484E-005	-0.199724	10	0.0006709	0.0099634	1468.155
	19	31	1253.634	13.83241	-8.181481	1	16.07085	-30.60312	-2.058144E-005	-0.1997251	10	0.0006231	0.0100145	1467.793
	20	32	1000.702	14.86336	-8.870405	1	17.30906	-30.82862	-2.037271E-005	-0.1996704	10	0.0005762	0.0099742	1468.426
	21	34	790.0281	15.9605	-9.71531	1	18.68488	-31.32928	-2.13467E-005	-0.1996698	9	0.0005383	0.0100581	1468.426
	22	35	628.811	17.0695	-10.63066	1	20.10917	-31.9141	-2.143173E-005	-0.1997265	9	0.000496	0.009974	1467.703
	23	36	502.2321	18.21069	-11.70374	1	21.64733	-32.72827	-2.119213E-005	-0.1997142	9	0.0004413	0.0095383	1468.245
	24	38	400.1524	19.44072	-12.99005	1	23.38125	-33.75037	-2.122287E-005	-0.199715	9	0.0004383	0.0102348	1468.245
	25	39	315.5048	20.83623	-14.60389	1	25.44449	-35.0262	-2.122747E-005	-0.1997174	9	0.0003981	0.0101218	1468.335
	26	40	252.0161	22.29396	-16.42571	1	27.6916	-36.38199	-2.119252E-005	-0.199714	9	0.0003624	0.0100302	1468.335
	27	42	200.3205	23.94305	-18.61934	1	30.33067	-37.87047	-2.119516E-005	-0.1997131	9	0.0003297	0.009996	1467.703
	28	43	158.0056	25.87423	-21.30503	1	33.51686	-39.4683	-2.119762E-005	-0.199714	9	0.0002974	0.0099647	1468.335
	29	45	125.558	27.99305	-24.35508	1	37.105	-41.02459	-2.128036E-005	-0.199714	9	0.0002672	0.0099126	1468.335
	30	46	99.734	30.38336	-27.91633	1	41.261	-42.5769	-2.12489E-005	-0.1997142	9	0.0002376	0.0098046	1467.793
	31	47	79.44915	33.03769	-32.04754	1	46.02753	-44.12841	-2.254084E-005	-0.1997022	9	0.0002226	0.0102441	1468.335
	32	49	62.91946	36.15672	-36.9053	1	51.66536	-45.58702	-2.221285E-005	-0.1996997	9	0.0001936	0.0099996	1467.793
	33	50	49.86702	39.43392	-42.62272	1	58.0666	-47.22545	-2.204789E-005	-0.1997003	9	0.0001723	0.010002	1468.335
	34	52	38.42213	43.47973	-50.30391	1	66.49038	-49.1618	-2.190775E-005	-0.1997	9	0.0001504	0.0100008	1468.335
	35	53	31.25	47.06587	-57.58286	1	74.37057	-50.73884	-2.186788E-005	-0.1997014	9	0.0001345	0.0099991	1468.335
	36	55	24.93351	51.09998	-67.12492	1	84.36209	-52.71918	-2.189787E-005	-0.1997032	9	0.0001185	0.010001	1467.793
	37	56	20.03205	55.50449	-78.35551	1	96.0226	-54.68748	-2.186625E-005	-0.1996994	9	0.0001041	0.01	1467.883
	38	58	15.625	61.11848	-94.16272	1	112.259	-57.01349	-2.194339E-005	-0.1997022	9	8.907582E-005	0.0099995	1467.793
	39	59	12.46675	67.15515	-112.077	1	130.6563	-59.07047	-2.196608E-005	-0.1997027	9	7.653915E-005	0.0100003	1468.245
	40	61	9.9734	74.51366	-133.917	1	153.2516	-60.9077	-2.19715E-005	-0.199702	9	6.52515E-005	0.0099999	1468.245
	41	63	7.971939	84.06886	-160.8697	1	181.5121	-62.4089	-2.202951E-005	-0.1997039	9	5.509228E-005	0.0099999	1467.974
	42	65	6.351626	97.0975	-194.2551	1	217.1704	-63.44203	-2.199268E-005	-0.1997027	9	4.604856E-005	0.0100004	1467.974
	43	67	5.013369	116.0284	-236.3755	1	263.3172	-63.8552	-2.190994E-005	-0.1996972	8	3.797539E-005	0.0099996	1467.793
	44	69	3.985969	142.1325	-284.8293	1	318.3227	-63.48038	-2.171667E-005	-0.1996975	8	3.141425E-005	0.0099999	1467.793
	45	73	3.175813	178.5951	-339.985	1	384.0391	-62.28693	-2.152611E-005	-0.1996996	8	2.603849E-005	0.0099998	1467.793
	46	77	2.516103	231.282	-402.5596	1	464.2689	-60.1214	-2.136387E-005	-0.1996951	8	2.099779E-005	0.0097713	1468.335
	47	81	1.99553	302.0554	-465.2855	1	554.7324	-57.00905	-2.130128E-005	-0.1996943	8	1.826177E-005	0.0101466	1467.883
	48	87	1.587906	391.1917	-522.9964	1	653.1127	-53.20418	-2.107311E-005	-0.1996951	8	1.538048E-005	0.0100558	1467.883
	49	94	1.258052	500.8982	-567.9056	1	757.2422	-48.5874	-2.088461E-005	-0.1996947	8	1.322528E-005	0.0100216	1467.883
	50	102	0.997765	622.5316	-591.8068	1	858.9417	-43.55063	-2.08437E-005	-0.1996959	8	1.164683E-005	0.0100083	1468.335
