EXPLAIN
TAG	EISPOT
TITLE	LABEL	Potentiostatic EIS	Test Identifier
DATE	LABEL	17.7.2024	Date
TIME	LABEL	13:21:52	Time
NOTES	NOTES	1	Notes...
	
PSTAT	PSTAT	IFC1010-34090	Potentiostat
VDC	POTEN	0.00000E+000	F	A Potential (V)
FREQINIT	QUANT	1.00000E+005	Initial Freq. (Hz)
FREQFINAL	QUANT	1.00000E+000	Final Freq. (Hz)
PTSPERDEC	QUANT	1.00000E+001	Points/decade
VAC	QUANT	1.00000E+001	AC Voltage (mV rms)
AREA	QUANT	1.00000E+000	Sample Area (cm^2)
SPEED	SELECTOR	1	Optimize for:
DRIFTCOR	SELECTOR	0	Drift Correction
THD	SELECTOR	0	THD
ZGUESS	QUANT	1.00000E+002	Estimated Z (ohms)
EOC	QUANT	0.7205974	Open Circuit (V)
SEQUENCER	TOGGLE	TRUE	Run as Sequence
PSTATMODEL	IQUANT	64	Pstat Model
PSTATSECTION	LABEL	IFC1010-34090	Pstat Section
PSTATSERIALNO	LABEL	34090	Pstat Serial Number
CTRLMODE	IQUANT	1	Control Mode
ELECTROMETER	IQUANT	0	RE=0 or CS=1
IESTAB	IQUANT	0	I/E Stability
CASPEED	IQUANT	3	Control Amp Speed
CONVENTION	IQUANT	1	Current Convention
ICHRANGE	IQUANT	2	Ich Range
ICHRANGEMODE	TOGGLE	F	Ich Auto Range
ICHOFFSETENABLE	TOGGLE	T	Ich Offset Enable
ICHOFFSET	QUANT	0	Ich Offset (V)
ICHFILTER	IQUANT	4	Ich Filter
VCHRANGE	IQUANT	2	Vch Range
VCHRANGEMODE	TOGGLE	F	Vch Auto Range
VCHOFFSETENABLE	TOGGLE	T	Vch Offset Enable
VCHOFFSET	QUANT	0	Vch Offset (V)
VCHFILTER	IQUANT	4	Vch Filter
IERANGELOWERLIMIT	IQUANT	4	I/E Range Lower Limit
IERANGEMODE	TOGGLE	F	I/E AutoRange
IERANGE	IQUANT	11	I/E Range
ACHSELECT	IQUANT	0	Ach Select
ACHRANGE	IQUANT	2	Ach Range
ACHOFFSETENABLE	TOGGLE	F	Ach Offset Enable
ACHOFFSET	QUANT	0	Ach Offset (V)
ACHFILTER	IQUANT	1	Ach Filter
SENSECABLEID	IQUANT	13	Sense Cable ID
PWRCABLEID	IQUANT	13	Power Cable ID
DCCALDATE	LABEL	1/30/2024	DC Calibration Date
ACCALDATE	LABEL	1/8/2024	AC Calibration Date
FRAMEWORKVERSION	LABEL	7.10.3	Framework Version
INSTRUMENTVERSION	LABEL	4.91	Instrument Version
COMMVERSION	LABEL	3.10	Communications Version
CPUPLDVERSION	LABEL	2.22	CPU PLD Version
CTRLPLDVERSION	LABEL	0.00	CTRL PLD Version
PSTATPLDVERSION	LABEL	0.00	PSTAT PLD Version
ZCURVE	TABLE
	Pt	Time	Freq	Zreal	Zimag	Zsig	Zmod	Zphz	Idc	Vdc	IERange	Imod	Vmod	Temp
	#	s	Hz	ohm	ohm	V	ohm	°	A	V	#	A	V	°C
	0	3	100019.5	6.770638	-1.060474	1	6.853185	-8.901819	-1.956149E-005	0.0003491	10	0.0014608	0.0099941	1467.522
	1	5	79511.72	6.725592	-1.016304	1	6.801946	-8.592953	-1.845419E-005	0.0003081	10	0.0017343	0.0117827	1468.155
	2	6	63105.47	6.73456	-1.008289	1	6.809622	-8.514995	-1.763654E-005	0.0003745	10	0.0016743	0.0113925	1467.883
	3	8	50214.84	6.754073	-1.044396	1	6.834344	-8.790144	-1.946375E-005	0.0003421	10	0.0016135	0.0110216	1468.245
	4	9	39902.34	6.792813	-1.124902	1	6.885326	-9.402947	-1.926746E-005	0.0003028	10	0.0015577	0.0107216	1468.245
	5	10	31699.22	6.848742	-1.247502	1	6.961432	-10.32328	-1.754305E-005	0.0003805	10	0.0015055	0.0104781	1468.245
	6	12	25136.72	6.924917	-1.415766	1	7.068159	-11.55462	-1.937428E-005	0.0003476	10	0.0014609	0.0103248	1467.703
	7	13	19980.47	7.020959	-1.632724	1	7.208304	-13.09145	-1.847769E-005	0.0002988	10	0.0014082	0.0101495	1468.335
	8	15	15878.91	7.138715	-1.900172	1	7.38728	-14.9053	-1.980314E-005	0.0002651	10	0.0013685	0.0101088	1467.612
	9	16	12597.66	7.28997	-2.236317	1	7.625272	-17.05425	-1.836805E-005	0.0002354	10	0.0013132	0.0100135	1468.335
	10	18	10019.53	7.479784	-2.639497	1	7.931842	-19.43713	-1.732368E-005	0.0002992	10	0.0012624	0.0100132	1468.245
	11	19	7928.241	7.729912	-3.136388	1	8.34197	-22.0847	-1.582548E-005	0.0002311	10	0.0011941	0.009961	1467.793
	12	20	6307.871	8.04533	-3.710817	1	8.859881	-24.76097	-1.60689E-005	0.0002296	10	0.0011278	0.0099917	1468.245
	13	22	5034.722	8.451617	-4.363745	1	9.51168	-27.30824	-1.735049E-005	0.0002505	10	0.0010184	0.009713	1467.522
	14	23	3993.056	8.993441	-5.121872	1	10.34966	-29.66203	-1.728336E-005	0.0002513	10	0.0009755	0.0101122	1468.155
	15	25	3144.055	9.7074	-5.976419	1	11.39962	-31.61877	-1.745225E-005	0.0001975	10	0.0008773	0.0100099	1468.155
	16	26	2519.531	10.52098	-6.812637	1	12.53407	-32.92422	-1.746459E-005	0.0001961	10	0.0007976	0.0100027	1468.155
	17	28	2000.762	11.52225	-7.703281	1	13.86012	-33.76498	-1.744357E-005	0.0001962	10	0.0007201	0.0099843	1468.155
	18	29	1580.669	12.69197	-8.61471	1	15.33947	-34.16681	-1.733549E-005	0.0001975	10	0.0006517	0.0099996	1467.612
	19	30	1253.634	13.96218	-9.50189	1	16.8887	-34.23706	-1.781307E-005	0.0001984	10	0.0005912	0.0099852	1468.155
	20	32	1000.702	15.27408	-10.40811	1	18.48313	-34.27143	-1.851058E-005	0.0002532	9	0.0005444	0.0100623	1467.612
	21	33	790.0281	16.71777	-11.35378	1	20.20872	-34.18215	-1.851383E-005	0.000252	9	0.0004931	0.0099655	1468.064
	22	35	628.811	18.16899	-12.33775	1	21.96206	-34.17867	-1.858948E-005	0.0001969	9	0.0004541	0.0099726	1468.155
	23	36	502.2321	19.64664	-13.42518	1	23.7955	-34.34605	-1.837675E-005	0.0002072	9	0.0004014	0.0095359	1467.703
	24	37	400.1524	21.19582	-14.69047	1	25.78901	-34.72519	-1.838498E-005	0.0002052	9	0.0003973	0.0102331	1468.245
	25	39	315.5048	22.88944	-16.25054	1	28.07146	-35.37315	-1.837352E-005	0.0002087	9	0.0003608	0.01012	1468.245
	26	40	252.0161	24.59107	-17.99989	1	30.47486	-36.20295	-1.832171E-005	0.0002094	9	0.0003292	0.0100283	1467.703
	27	41	200.3205	26.44819	-20.12002	1	33.23134	-37.26146	-1.830437E-005	0.0002084	9	0.0003009	0.0099962	1468.245
	28	43	158.0056	28.53017	-22.73168	1	36.47876	-38.54641	-1.827293E-005	0.0002087	9	0.0002732	0.0099638	1468.245
	29	44	125.558	30.73112	-25.74656	1	40.09099	-39.95631	-1.829919E-005	0.0002055	9	0.0002472	0.0099111	1468.245
	30	45	99.734	33.14414	-29.32095	1	44.25214	-41.49757	-1.822726E-005	0.0002092	9	0.0002216	0.0098046	1468.335
	31	47	79.44915	35.75146	-33.56315	1	49.03725	-43.19174	-1.942529E-005	0.0002192	9	0.0002092	0.0102579	1467.793
	32	48	62.91946	38.71675	-38.62052	1	54.68575	-44.92871	-1.904126E-005	0.0002242	9	0.0001828	0.0099979	1468.335
	33	50	49.86702	41.71413	-44.6997	1	61.14026	-46.97877	-1.880373E-005	0.0002214	9	0.0001637	0.0100055	1467.883
	34	51	38.42213	45.28765	-52.98449	1	69.70171	-49.47836	-1.855526E-005	0.0002208	9	0.0001435	0.009999	1467.793
	35	53	31.25	48.39277	-61.00744	1	77.87019	-51.57759	-1.844812E-005	0.0002202	9	0.0001284	0.01	1467.793
	36	54	24.93351	51.5714	-71.61531	1	88.25169	-54.2417	-1.83792E-005	0.0002203	9	0.0001133	0.0099991	1467.793
	37	56	20.03205	54.87612	-84.27993	1	100.5708	-56.93115	-1.825969E-005	0.0002237	9	0.0000994	0.0100001	1467.793
	38	57	15.625	58.6167	-102.2536	1	117.8631	-60.17658	-1.821135E-005	0.0002226	9	8.485109E-005	0.0100008	1468.245
	39	59	12.46675	62.14188	-122.893	1	137.7109	-63.17617	-1.816907E-005	0.0002238	9	7.261597E-005	0.01	1467.793
	40	61	9.9734	65.7485	-148.3651	1	162.2808	-66.09931	-1.813959E-005	0.0002228	9	6.161684E-005	0.0099992	1467.793
	41	62	7.971939	69.59894	-180.3417	1	193.3058	-68.897	-1.816086E-005	0.0002227	9	5.173493E-005	0.0100007	1467.974
	42	64	6.351626	73.89416	-220.9589	1	232.9875	-71.50878	-1.814195E-005	0.0002212	9	4.292134E-005	0.0100001	1467.974
	43	67	5.013369	79.02287	-274.2465	1	285.4046	-73.92591	-1.813256E-005	0.0002253	8	3.503842E-005	0.0100001	1467.793
	44	69	3.985969	84.92725	-339.3125	1	349.7794	-75.94801	-1.811234E-005	0.0002244	8	2.858739E-005	0.0099993	1467.703
	45	71	3.175813	92.0918	-420.0784	1	430.0544	-77.63493	-1.808528E-005	0.0002215	8	2.325343E-005	0.0100002	1467.703
	46	74	2.516103	101.7054	-524.5139	1	534.2835	-79.02629	-1.805273E-005	0.0002263	8	1.824664E-005	0.0097716	1467.793
	47	78	1.99553	113.7754	-654.5197	1	664.3348	-80.13879	-1.801634E-005	0.0002253	8	1.524843E-005	0.0101462	1467.984
	48	82	1.587906	129.5538	-815.1298	1	825.361	-80.96915	-1.797552E-005	0.0002251	8	1.217071E-005	0.0100559	1467.793
	49	87	1.258052	151.4155	-1020.281	1	1031.455	-81.55859	-1.793018E-005	0.0002264	8	9.709523E-006	0.0100218	1467.974
	50	92	0.997765	181.3604	-1276.321	1	1289.142	-81.91263	-1.788408E-005	0.0002264	8	7.760268E-006	0.0100084	1468.023
