EXPLAIN
TAG	EISPOT
TITLE	LABEL	Potentiostatic EIS	Test Identifier
DATE	LABEL	2/13/2024	Date
TIME	LABEL	12:14:39	Time
NOTES	NOTES	1	Notes...
	
PSTAT	PSTAT	IFC1010-36068	Potentiostat
VDC	POTEN	-5.00000E-001	F	A Potential (V)
FREQINIT	QUANT	1.00000E+005	Initial Freq. (Hz)
FREQFINAL	QUANT	1.00000E+000	Final Freq. (Hz)
PTSPERDEC	QUANT	1.00000E+001	Points/decade
VAC	QUANT	1.00000E+001	AC Voltage (mV rms)
AREA	QUANT	1.00000E+000	Sample Area (cm^2)
SPEED	SELECTOR	1	Optimize for:
DRIFTCOR	SELECTOR	0	Drift Correction
THD	SELECTOR	0	THD
ZGUESS	QUANT	1.00000E+002	Estimated Z (ohms)
EOC	QUANT	0.3246219	Open Circuit (V)
SEQUENCER	TOGGLE	TRUE	Run as Sequence
PSTATMODEL	IQUANT	64	Pstat Model
PSTATSECTION	LABEL	IFC1010-36068	Pstat Section
PSTATSERIALNO	LABEL	36068	Pstat Serial Number
CTRLMODE	IQUANT	1	Control Mode
ELECTROMETER	IQUANT	0	RE=0 or CS=1
IESTAB	IQUANT	0	I/E Stability
CASPEED	IQUANT	3	Control Amp Speed
CONVENTION	IQUANT	1	Current Convention
ICHRANGE	IQUANT	2	Ich Range
ICHRANGEMODE	TOGGLE	F	Ich Auto Range
ICHOFFSETENABLE	TOGGLE	T	Ich Offset Enable
ICHOFFSET	QUANT	0	Ich Offset (V)
ICHFILTER	IQUANT	4	Ich Filter
VCHRANGE	IQUANT	2	Vch Range
VCHRANGEMODE	TOGGLE	F	Vch Auto Range
VCHOFFSETENABLE	TOGGLE	T	Vch Offset Enable
VCHOFFSET	QUANT	0	Vch Offset (V)
VCHFILTER	IQUANT	4	Vch Filter
IERANGELOWERLIMIT	IQUANT	4	I/E Range Lower Limit
IERANGEMODE	TOGGLE	F	I/E AutoRange
IERANGE	IQUANT	11	I/E Range
ACHSELECT	IQUANT	0	Ach Select
ACHRANGE	IQUANT	2	Ach Range
ACHOFFSETENABLE	TOGGLE	F	Ach Offset Enable
ACHOFFSET	QUANT	0	Ach Offset (V)
ACHFILTER	IQUANT	1	Ach Filter
SENSECABLEID	IQUANT	13	Sense Cable ID
PWRCABLEID	IQUANT	13	Power Cable ID
DCCALDATE	LABEL	8/11/2023	DC Calibration Date
ACCALDATE	LABEL	6/2/2023	AC Calibration Date
FRAMEWORKVERSION	LABEL	7.10.3	Framework Version
INSTRUMENTVERSION	LABEL	4.91	Instrument Version
COMMVERSION	LABEL	3.10	Communications Version
CPUPLDVERSION	LABEL	2.22	CPU PLD Version
CTRLPLDVERSION	LABEL	0.00	CTRL PLD Version
PSTATPLDVERSION	LABEL	0.00	PSTAT PLD Version
ZCURVE	TABLE
	Pt	Time	Freq	Zreal	Zimag	Zsig	Zmod	Zphz	Idc	Vdc	IERange	Imod	Vmod	Temp
	#	s	Hz	ohm	ohm	V	ohm	°	A	V	#	A	V	°C
	0	3	100019.5	17.10147	-0.6872333	1	17.11527	-2.301229	-0.0008291	-0.4998642	10	0.0005858	0.0100012	1467.883
	1	5	79511.72	17.19921	-0.6221495	1	17.21046	-2.071665	-0.0007984	-0.4998671	10	0.0006443	0.0110687	1468.426
	2	6	63105.47	17.24082	-0.6319987	1	17.2524	-2.099358	-0.0007758	-0.4997787	10	0.0006212	0.0107041	1467.974
	3	7	50214.84	17.40372	-0.6360772	1	17.41534	-2.093134	-0.000756	-0.4997793	10	0.0006012	0.0104609	1468.426
	4	9	39902.34	17.56518	-0.6673757	1	17.57785	-2.175863	-0.0007382	-0.4997787	10	0.0005852	0.010282	1468.426
	5	10	31699.22	17.48924	-0.6932842	1	17.50297	-2.270051	-0.0007333	-0.49978	10	0.000582	0.0101831	1468.516
	6	12	25136.72	17.61297	-0.7654077	1	17.62959	-2.48834	-0.0007178	-0.499779	10	0.0005737	0.0101124	1467.883
	7	13	19980.47	17.59426	-0.852315	1	17.61489	-2.773399	-0.0007085	-0.4998692	10	0.0005709	0.0100546	1468.516
	8	15	15878.91	17.72645	-0.965385	1	17.75272	-3.117255	-0.0006983	-0.4998717	10	0.0005651	0.0100312	1467.883
	9	16	12597.66	17.9066	-1.115368	1	17.94131	-3.56424	-0.000688	-0.4998697	10	0.0005588	0.0100246	1468.516
	10	18	10019.53	18.07489	-1.284141	1	18.12045	-4.063783	-0.0006806	-0.49978	10	0.000554	0.0100382	1468.426
	11	19	7928.241	13.34982	-1.271701	1	13.41025	-5.441563	-0.0007658	-0.4997773	10	0.0007451	0.0099917	1468.245
	12	21	6307.871	13.5171	-1.498081	1	13.59986	-6.324204	-0.0007573	-0.4997784	10	0.0007374	0.010029	1468.335
	13	22	5034.722	13.70888	-1.777695	1	13.82366	-7.388584	-0.0007504	-0.4998108	10	0.0006994	0.0097113	1467.974
	14	23	3993.056	13.92144	-2.120651	1	14.08203	-8.661277	-0.0007424	-0.4998083	10	0.0007199	0.010166	1468.335
	15	25	3144.055	14.18423	-2.546643	1	14.41103	-10.17847	-0.000735	-0.4998675	10	0.0006983	0.0100802	1467.703
	16	26	2519.531	14.46203	-3.007207	1	14.77137	-11.74659	-0.0007282	-0.4998679	10	0.0006768	0.0100077	1468.335
	17	28	2000.762	14.81035	-3.602368	1	15.24216	-13.67076	-0.0007208	-0.499869	10	0.0006567	0.0100155	1467.793
	18	29	1580.669	15.24511	-4.328323	1	15.84764	-15.85007	-0.0007128	-0.4998668	10	0.0006318	0.0100162	1468.426
	19	31	1253.634	15.74047	-5.16529	1	16.56631	-18.16743	-0.0007062	-0.4998663	10	0.0006025	0.0099832	1468.335
	20	32	1000.702	16.35276	-6.115077	1	17.45872	-20.50317	-0.0007016	-0.4998118	10	0.0005732	0.0100097	1467.974
	21	33	790.0281	17.15169	-7.289763	1	18.63655	-23.02633	-0.0006956	-0.4998117	10	0.0005352	0.0099745	1468.426
	22	35	628.811	17.98239	-8.5353	1	19.90522	-25.39125	-0.0006939	-0.4998673	10	0.0005024	0.0100008	1467.793
	23	36	502.2321	19.17632	-9.98363	1	21.61953	-27.50253	-0.0006894	-0.4998688	10	0.000441	0.0095471	1468.426
	24	37	400.1524	20.70956	-11.59252	1	23.73336	-29.23863	-0.0006859	-0.4998691	10	0.0004319	0.0102535	1468.516
	25	39	315.5048	22.7177	-13.39892	1	26.3747	-30.53214	-0.0006819	-0.4998681	10	0.0003835	0.0101131	1467.974
	26	40	252.0161	25.04981	-15.12275	1	29.26074	-31.11968	-0.0006787	-0.4998649	10	0.0003425	0.0100213	1468.516
	27	42	200.3205	27.96338	-16.8184	1	32.63142	-31.02454	-0.0006743	-0.499865	10	0.0003071	0.0100187	1468.516
	28	43	158.0056	31.36452	-18.29279	1	36.30922	-30.2521	-0.0006712	-0.4998648	10	0.0002739	0.009945	1468.516
	29	44	125.558	35.20424	-19.39066	1	40.19124	-28.84618	-0.0006673	-0.4998682	10	0.0002463	0.0099	1468.516
	30	46	99.734	39.38618	-19.96728	1	44.15839	-26.88326	-0.0006627	-0.4998642	10	0.0002206	0.0097402	1467.883
	31	47	79.44915	43.5965	-19.96762	1	47.95165	-24.60824	-0.0006596	-0.4998662	10	0.0002143	0.0102737	1468.516
	32	49	62.91946	47.88359	-19.30627	1	51.62916	-21.95889	-0.0006548	-0.4998607	10	0.0001937	0.0100028	1468.064
	33	50	49.86702	51.89092	-18.1123	1	54.9611	-19.24132	-0.0006506	-0.4998653	10	0.000182	0.0100007	1468.516
	34	52	38.42213	55.76274	-16.30467	1	58.09755	-16.29858	-0.0006465	-0.4998672	10	0.0001721	0.0100003	1467.974
	35	53	31.25	58.51883	-14.63332	1	60.3207	-14.03957	-0.0006422	-0.4998646	10	0.0001658	0.0100003	1468.426
	36	55	24.93351	60.88867	-12.72739	1	62.20463	-11.80639	-0.000638	-0.4998481	9	0.0001608	0.0099994	1468.516
	37	57	20.03205	62.99572	-10.95808	1	63.94169	-9.86784	-0.0006326	-0.4998445	9	0.0001564	0.01	1467.974
	38	58	15.625	64.85032	-8.985765	1	65.4699	-7.888765	-0.000628	-0.4998494	9	0.0001527	0.0099997	1467.883
	39	60	12.46675	65.9353	-7.308703	1	66.33914	-6.32522	-0.0006262	-0.4998497	9	0.0001507	0.0100001	1467.883
	40	62	9.9734	67.08646	-5.87703	1	67.3434	-5.006547	-0.0006212	-0.4998492	9	0.0001485	0.0099997	1467.883
	41	64	7.971939	68.137	-4.601908	1	68.29223	-3.863834	-0.0006156	-0.4998501	9	0.0001464	0.0100001	1467.883
	42	67	6.351626	69.03758	-3.476316	1	69.12505	-2.882635	-0.0006102	-0.4998488	9	0.0001447	0.01	1467.883
	43	69	5.013369	69.92277	-2.466363	1	69.96626	-2.020138	-0.0006039	-0.4998457	9	0.0001429	0.0100002	1467.883
	44	72	3.985969	70.72528	-1.630068	1	70.74406	-1.320313	-0.0005979	-0.4998503	9	0.0001414	0.01	1467.883
	45	76	3.175813	71.48179	-0.9263464	1	71.48779	-0.7424656	-0.0005913	-0.4998498	9	0.0001399	0.0100004	1467.883
	46	80	2.516103	72.29362	-0.2259853	1	72.29398	-0.1791024	-0.0005847	-0.4998401	9	0.0001339	0.0096987	1467.974
	47	84	1.99553	69.0997	0.3214568	1	69.10045	0.2665421	-0.0006017	-0.4998413	9	0.0001472	0.0101812	1468.426
	48	90	1.587906	69.74809	0.7188284	1	69.75179	0.5904732	-0.0005955	-0.4998462	9	0.0001443	0.0100736	1467.974
	49	97	1.258052	71.21856	1.053113	1	71.22635	0.8471744	-0.0005827	-0.4998397	9	0.0001408	0.0100315	1467.974
	50	105	0.997765	71.9098	1.303905	1	71.92162	1.038803	-0.0005738	-0.4998409	9	0.0001392	0.0100131	1467.883
