EXPLAIN
TAG	EISPOT
TITLE	LABEL	Potentiostatic EIS	Test Identifier
DATE	LABEL	17.7.2024	Date
TIME	LABEL	13:23:30	Time
NOTES	NOTES	1	Notes...
	
PSTAT	PSTAT	IFC1010-34090	Potentiostat
VDC	POTEN	-1.00000E-001	F	A Potential (V)
FREQINIT	QUANT	1.00000E+005	Initial Freq. (Hz)
FREQFINAL	QUANT	1.00000E+000	Final Freq. (Hz)
PTSPERDEC	QUANT	1.00000E+001	Points/decade
VAC	QUANT	1.00000E+001	AC Voltage (mV rms)
AREA	QUANT	1.00000E+000	Sample Area (cm^2)
SPEED	SELECTOR	1	Optimize for:
DRIFTCOR	SELECTOR	0	Drift Correction
THD	SELECTOR	0	THD
ZGUESS	QUANT	1.00000E+002	Estimated Z (ohms)
EOC	QUANT	0.7205974	Open Circuit (V)
SEQUENCER	TOGGLE	TRUE	Run as Sequence
PSTATMODEL	IQUANT	64	Pstat Model
PSTATSECTION	LABEL	IFC1010-34090	Pstat Section
PSTATSERIALNO	LABEL	34090	Pstat Serial Number
CTRLMODE	IQUANT	1	Control Mode
ELECTROMETER	IQUANT	0	RE=0 or CS=1
IESTAB	IQUANT	0	I/E Stability
CASPEED	IQUANT	3	Control Amp Speed
CONVENTION	IQUANT	1	Current Convention
ICHRANGE	IQUANT	2	Ich Range
ICHRANGEMODE	TOGGLE	F	Ich Auto Range
ICHOFFSETENABLE	TOGGLE	T	Ich Offset Enable
ICHOFFSET	QUANT	0	Ich Offset (V)
ICHFILTER	IQUANT	4	Ich Filter
VCHRANGE	IQUANT	2	Vch Range
VCHRANGEMODE	TOGGLE	F	Vch Auto Range
VCHOFFSETENABLE	TOGGLE	T	Vch Offset Enable
VCHOFFSET	QUANT	0	Vch Offset (V)
VCHFILTER	IQUANT	4	Vch Filter
IERANGELOWERLIMIT	IQUANT	4	I/E Range Lower Limit
IERANGEMODE	TOGGLE	F	I/E AutoRange
IERANGE	IQUANT	11	I/E Range
ACHSELECT	IQUANT	0	Ach Select
ACHRANGE	IQUANT	2	Ach Range
ACHOFFSETENABLE	TOGGLE	F	Ach Offset Enable
ACHOFFSET	QUANT	0	Ach Offset (V)
ACHFILTER	IQUANT	1	Ach Filter
SENSECABLEID	IQUANT	13	Sense Cable ID
PWRCABLEID	IQUANT	13	Power Cable ID
DCCALDATE	LABEL	1/30/2024	DC Calibration Date
ACCALDATE	LABEL	1/8/2024	AC Calibration Date
FRAMEWORKVERSION	LABEL	7.10.3	Framework Version
INSTRUMENTVERSION	LABEL	4.91	Instrument Version
COMMVERSION	LABEL	3.10	Communications Version
CPUPLDVERSION	LABEL	2.22	CPU PLD Version
CTRLPLDVERSION	LABEL	0.00	CTRL PLD Version
PSTATPLDVERSION	LABEL	0.00	PSTAT PLD Version
ZCURVE	TABLE
	Pt	Time	Freq	Zreal	Zimag	Zsig	Zmod	Zphz	Idc	Vdc	IERange	Imod	Vmod	Temp
	#	s	Hz	ohm	ohm	V	ohm	°	A	V	#	A	V	°C
	0	3	100019.5	6.770426	-1.063481	1	6.853441	-8.926935	-1.9143E-005	-0.0996293	10	0.0014612	0.0099971	1467.703
	1	5	79511.72	6.724523	-1.02135	1	6.801644	-8.636328	-2.06448E-005	-0.0996379	10	0.0017319	0.0117657	1467.612
	2	6	63105.47	6.732535	-1.014054	1	6.808475	-8.565504	-1.968961E-005	-0.0996893	10	0.0016751	0.0113957	1468.245
	3	8	50214.84	6.753796	-1.051908	1	6.835223	-8.852731	-1.829526E-005	-0.0996247	10	0.0016142	0.0110278	1467.612
	4	9	39902.34	6.793676	-1.136004	1	6.888	-9.492882	-2.034691E-005	-0.0996473	10	0.001558	0.0107282	1468.335
	5	11	31699.22	6.85291	-1.261454	1	6.968044	-10.43001	-1.887556E-005	-0.0996893	10	0.0015053	0.0104869	1467.612
	6	12	25136.72	6.932169	-1.433541	1	7.078843	-11.68382	-1.802654E-005	-0.0996185	10	0.0014551	0.0102991	1468.335
	7	14	19980.47	7.03559	-1.651609	1	7.226849	-13.21101	-1.999941E-005	-0.0996464	10	0.0014055	0.0101566	1468.245
	8	15	15878.91	7.16473	-1.924119	1	7.418598	-15.03234	-1.806941E-005	-0.0995445	10	0.0013589	0.0100804	1468.155
	9	16	12597.66	7.330491	-2.257505	1	7.67023	-17.11679	-1.766407E-005	-0.0996475	10	0.00131	0.0100474	1468.335
	10	18	10019.53	7.541796	-2.660095	1	7.997174	-19.42845	-1.899117E-005	-0.0996151	10	0.001248	0.0099805	1467.703
	11	19	7928.241	7.820497	-3.142163	1	8.428128	-21.88955	-1.632755E-005	-0.0996973	10	0.0011851	0.0099883	1468.335
	12	21	6307.871	8.174417	-3.691893	1	8.969457	-24.30584	-1.600846E-005	-0.0996957	10	0.0011099	0.0099548	1468.245
	13	22	5034.722	8.619475	-4.299109	1	9.63212	-26.5085	-1.753778E-005	-0.0996762	10	0.0010082	0.0097375	1468.064
	14	24	3993.056	9.200447	-4.98151	1	10.46249	-28.43298	-1.747592E-005	-0.0996775	10	0.0009643	0.0101046	1468.155
	15	25	3144.055	9.93858	-5.722222	1	11.46818	-29.93156	-1.763413E-005	-0.0997277	10	0.0008742	0.0100347	1467.612
	16	26	2519.531	10.74634	-6.423307	1	12.51969	-30.86762	-1.769043E-005	-0.0997289	10	0.0007979	0.0099959	1468.155
	17	28	2000.762	11.70232	-7.152248	1	13.71491	-31.43253	-1.768462E-005	-0.0997279	10	0.0007275	0.0099818	1467.522
	18	29	1580.669	12.77482	-7.891561	1	15.01575	-31.70542	-1.755777E-005	-0.0997291	10	0.0006656	0.0099968	1468.155
	19	31	1253.634	13.9017	-8.621698	1	16.35821	-31.80678	-1.805625E-005	-0.0997285	10	0.0006102	0.0099838	1468.298
	20	32	1000.702	15.03682	-9.39642	1	17.73129	-32.00102	-1.857235E-005	-0.0996744	9	0.0005672	0.0100585	1468.245
	21	33	790.0281	16.28161	-10.23268	1	19.23014	-32.14856	-1.860687E-005	-0.0996742	9	0.0005182	0.0099648	1468.155
	22	35	628.811	17.52447	-11.14122	1	20.76618	-32.44625	-1.866062E-005	-0.0997302	9	0.0004803	0.0099738	1468.155
	23	36	502.2321	18.79288	-12.17561	1	22.39236	-32.93856	-1.848937E-005	-0.0997212	9	0.0004266	0.0095365	1468.064
	24	37	400.1524	20.14155	-13.40147	1	24.19258	-33.63837	-1.845671E-005	-0.0997213	9	0.0004248	0.0102649	1468.335
	25	39	315.5048	21.64092	-14.92491	1	26.28844	-34.59253	-1.846526E-005	-0.0997196	9	0.0003841	0.0100903	1467.793
	26	40	252.0161	23.17097	-16.63897	1	28.52629	-35.68195	-1.839098E-005	-0.0997173	9	0.0003518	0.010029	1468.245
	27	42	200.3205	24.86819	-18.72337	1	31.12863	-36.97624	-1.8373E-005	-0.0997166	9	0.0003213	0.0099979	1468.335
	28	43	158.0056	26.80617	-21.27458	1	34.22249	-38.43709	-1.835444E-005	-0.0997171	9	0.0002912	0.0099644	1467.793
	29	44	125.558	28.89796	-24.20064	1	37.69301	-39.94454	-1.838474E-005	-0.0997168	9	0.000263	0.0099116	1468.245
	30	46	99.734	31.22384	-27.6376	1	41.6985	-41.51345	-1.832013E-005	-0.0997166	9	0.0002352	0.0098049	1468.245
	31	47	79.44915	33.76839	-31.65615	1	46.28624	-43.15083	-1.969537E-005	-0.0997065	9	0.0002217	0.0102592	1468.335
	32	48	62.91946	36.72474	-36.42945	1	51.72825	-44.76872	-1.925341E-005	-0.0997033	9	0.0001933	0.0099993	1468.245
	33	50	49.86702	39.64238	-42.06252	1	57.79942	-46.69663	-1.900982E-005	-0.0997066	9	0.0001731	0.0100029	1467.793
	34	51	38.42213	43.41772	-49.71859	1	66.00786	-48.87029	-1.877136E-005	-0.0997069	9	0.0001515	0.0100006	1468.245
	35	53	31.25	46.54441	-57.01098	1	73.59779	-50.77141	-1.859741E-005	-0.0997046	9	0.0001359	0.0100003	1467.793
	36	54	24.93351	49.85453	-66.58669	1	83.1821	-53.17721	-1.854693E-005	-0.0997064	9	0.0001202	0.0099999	1468.335
	37	56	20.03205	53.25574	-77.94497	1	94.40123	-55.65723	-1.841305E-005	-0.0997039	9	0.0001059	0.0099992	1467.793
	38	57	15.625	57.14363	-93.99143	1	109.999	-58.70181	-1.835799E-005	-0.0997049	9	9.090236E-005	0.0099991	1468.245
	39	59	12.46675	60.76943	-112.3417	1	127.7246	-61.58954	-1.831214E-005	-0.0997058	9	7.830407E-005	0.0100013	1468.335
	40	61	9.9734	64.47288	-134.9551	1	149.5648	-64.46452	-1.82784E-005	-0.0997058	9	6.68589E-005	0.0099997	1467.793
	41	63	7.971939	68.3896	-163.2877	1	177.0311	-67.27466	-1.828987E-005	-0.0997041	9	5.649375E-005	0.0100011	1467.883
	42	65	6.351626	72.70571	-199.2556	1	212.1059	-69.95364	-1.827879E-005	-0.0997061	9	4.714154E-005	0.009999	1467.883
	43	67	5.013369	77.72303	-246.3875	1	258.3557	-72.4921	-1.823348E-005	-0.099702	8	3.870569E-005	0.0099998	1468.245
	44	69	3.985969	83.39931	-303.955	1	315.189	-74.65675	-1.820581E-005	-0.0997025	8	3.172658E-005	0.0099999	1467.793
	45	72	3.175813	90.17293	-375.3461	1	386.0257	-76.49129	-1.817901E-005	-0.0997022	8	2.590635E-005	0.0100005	1467.703
	46	75	2.516103	99.1713	-467.6532	1	478.0528	-78.02713	-1.815991E-005	-0.0997001	8	2.039218E-005	0.0097713	1468.335
	47	78	1.99553	110.3463	-582.3441	1	592.7064	-79.27044	-1.813539E-005	-0.0996998	8	1.70914E-005	0.0101464	1468.335
	48	82	1.587906	124.8241	-724.0134	1	734.6948	-80.21803	-1.810383E-005	-0.0997005	8	1.367263E-005	0.0100558	1467.88
	49	87	1.258052	144.6219	-904.6337	1	916.121	-80.9171	-1.806115E-005	-0.0997007	8	1.093205E-005	0.0100219	1467.793
	50	93	0.997765	171.6829	-1129.731	1	1142.702	-81.359	-1.802834E-005	-0.0997009	8	8.754645E-006	0.0100083	1468.335
