EXPLAIN
TAG	EISPOT
TITLE	LABEL	Potentiostatic EIS	Test Identifier
DATE	LABEL	17.7.2024	Date
TIME	LABEL	10:21:50	Time
NOTES	NOTES	1	Notes...
	
PSTAT	PSTAT	IFC1010-34090	Potentiostat
VDC	POTEN	-1.00000E-001	F	A Potential (V)
FREQINIT	QUANT	1.00000E+005	Initial Freq. (Hz)
FREQFINAL	QUANT	1.00000E+000	Final Freq. (Hz)
PTSPERDEC	QUANT	1.00000E+001	Points/decade
VAC	QUANT	1.00000E+001	AC Voltage (mV rms)
AREA	QUANT	1.00000E+000	Sample Area (cm^2)
SPEED	SELECTOR	1	Optimize for:
DRIFTCOR	SELECTOR	0	Drift Correction
THD	SELECTOR	0	THD
ZGUESS	QUANT	1.00000E+002	Estimated Z (ohms)
EOC	QUANT	0.7205974	Open Circuit (V)
SEQUENCER	TOGGLE	TRUE	Run as Sequence
PSTATMODEL	IQUANT	64	Pstat Model
PSTATSECTION	LABEL	IFC1010-34090	Pstat Section
PSTATSERIALNO	LABEL	34090	Pstat Serial Number
CTRLMODE	IQUANT	1	Control Mode
ELECTROMETER	IQUANT	0	RE=0 or CS=1
IESTAB	IQUANT	0	I/E Stability
CASPEED	IQUANT	3	Control Amp Speed
CONVENTION	IQUANT	1	Current Convention
ICHRANGE	IQUANT	2	Ich Range
ICHRANGEMODE	TOGGLE	F	Ich Auto Range
ICHOFFSETENABLE	TOGGLE	T	Ich Offset Enable
ICHOFFSET	QUANT	0	Ich Offset (V)
ICHFILTER	IQUANT	4	Ich Filter
VCHRANGE	IQUANT	2	Vch Range
VCHRANGEMODE	TOGGLE	F	Vch Auto Range
VCHOFFSETENABLE	TOGGLE	T	Vch Offset Enable
VCHOFFSET	QUANT	0	Vch Offset (V)
VCHFILTER	IQUANT	4	Vch Filter
IERANGELOWERLIMIT	IQUANT	4	I/E Range Lower Limit
IERANGEMODE	TOGGLE	F	I/E AutoRange
IERANGE	IQUANT	11	I/E Range
ACHSELECT	IQUANT	0	Ach Select
ACHRANGE	IQUANT	2	Ach Range
ACHOFFSETENABLE	TOGGLE	F	Ach Offset Enable
ACHOFFSET	QUANT	0	Ach Offset (V)
ACHFILTER	IQUANT	1	Ach Filter
SENSECABLEID	IQUANT	13	Sense Cable ID
PWRCABLEID	IQUANT	13	Power Cable ID
DCCALDATE	LABEL	1/30/2024	DC Calibration Date
ACCALDATE	LABEL	1/8/2024	AC Calibration Date
FRAMEWORKVERSION	LABEL	7.10.3	Framework Version
INSTRUMENTVERSION	LABEL	4.91	Instrument Version
COMMVERSION	LABEL	3.10	Communications Version
CPUPLDVERSION	LABEL	2.22	CPU PLD Version
CTRLPLDVERSION	LABEL	0.00	CTRL PLD Version
PSTATPLDVERSION	LABEL	0.00	PSTAT PLD Version
ZCURVE	TABLE
	Pt	Time	Freq	Zreal	Zimag	Zsig	Zmod	Zphz	Idc	Vdc	IERange	Imod	Vmod	Temp
	#	s	Hz	ohm	ohm	V	ohm	°	A	V	#	A	V	°C
	0	4	100019.5	6.902452	-1.09625	1	6.988963	-9.024368	-6.758575E-006	-0.0997075	10	0.0014335	0.0100019	1467.341
	1	5	79511.72	6.87646	-1.05657	1	6.957157	-8.735203	-6.00048E-006	-0.0996692	10	0.0016936	0.0117688	1467.431
	2	7	63105.47	6.912857	-1.049039	1	6.992	-8.628905	-6.904392E-006	-0.0996455	10	0.0016298	0.0113865	1467.431
	3	8	50214.84	6.971536	-1.080054	1	7.054702	-8.806447	-8.049211E-006	-0.0996939	10	0.0015604	0.0110027	1467.07
	4	10	39902.34	7.061058	-1.14059	1	7.152586	-9.175867	-7.547524E-006	-0.0996198	10	0.001494	0.0106825	1466.889
	5	12	31699.22	7.183832	-1.222855	1	7.287168	-9.66047	-6.833649E-006	-0.0996461	10	0.0014345	0.0104509	1467.522
	6	13	25136.72	7.33981	-1.319786	1	7.457523	-10.19354	-7.686196E-006	-0.0996753	10	0.0013743	0.0102476	1466.889
	7	15	19980.47	7.523951	-1.421563	1	7.657067	-10.69925	-5.761136E-006	-0.0996868	10	0.0013224	0.0101248	1467.522
	8	16	15878.91	7.735777	-1.515498	1	7.882829	-11.0843	-5.755676E-006	-0.0996576	10	0.0012752	0.0100515	1466.889
	9	18	12597.66	7.948653	-1.606126	1	8.109299	-11.42352	-6.298252E-006	-0.0996422	10	0.001232	0.0099904	1467.522
	10	19	10019.53	8.203254	-1.681017	1	8.37372	-11.58077	-6.808923E-006	-0.0997253	10	0.0011969	0.0100222	1467.161
	11	21	7928.241	8.44379	-1.756932	1	8.62464	-11.75404	-4.045867E-006	-0.0997244	10	0.0011565	0.0099742	1467.522
	12	22	6307.871	8.67069	-1.837207	1	8.863193	-11.96329	-3.857111E-006	-0.0997245	10	0.001127	0.0099886	1467.522
	13	24	5034.722	8.888832	-1.935368	1	9.097087	-12.28332	-5.332458E-006	-0.0997065	10	0.0010668	0.009731	1466.799
	14	26	3993.056	9.111326	-2.063612	1	9.342096	-12.76154	-5.315192E-006	-0.0997064	10	0.0010848	0.0101505	1467.341
	15	27	3144.055	9.347918	-2.235084	1	9.61141	-13.44695	-5.519363E-006	-0.0997598	10	0.001044	0.0100433	1467.431
	16	29	2519.531	9.57503	-2.436517	1	9.88017	-14.2768	-5.685383E-006	-0.0997601	10	0.0010139	0.0100234	1466.799
	17	31	2000.762	9.83119	-2.68912	1	10.19233	-15.29789	-5.504525E-006	-0.0997598	10	0.0009798	0.0099896	1467.341
	18	32	1580.669	10.11463	-3.005811	1	10.55181	-16.55061	-5.423952E-006	-0.0997581	10	0.0009461	0.0099848	1467.341
	19	34	1253.634	10.42033	-3.38043	1	10.95494	-17.97343	-5.478273E-006	-0.099759	10	0.0009136	0.0100099	1467.341
	20	35	1000.702	10.74916	-3.816015	1	11.40642	-19.54516	-5.156056E-006	-0.0997045	10	0.0008742	0.0099727	1467.431
	21	37	790.0281	11.13033	-4.360443	1	11.95398	-21.39338	-5.210694E-006	-0.0997053	10	0.0008364	0.0099983	1467.341
	22	38	628.811	11.54368	-4.985949	1	12.57443	-23.36049	-5.502545E-006	-0.0997594	10	0.0007946	0.0099922	1467.341
	23	40	502.2321	12.00397	-5.717655	1	13.29612	-25.46911	-5.319773E-006	-0.0997496	10	0.0007185	0.0095381	1467.431
	24	41	400.1524	12.53336	-6.591254	1	14.16085	-27.73974	-5.327161E-006	-0.0997513	10	0.0007263	0.0102733	1466.889
	25	42	315.5048	13.16974	-7.675882	1	15.2434	-30.23545	-5.380232E-006	-0.0997517	10	0.0006635	0.0101058	1467.522
	26	44	252.0161	13.86571	-8.88543	1	16.46841	-32.65259	-5.785717E-006	-0.0997483	10	0.0006105	0.0100488	1467.522
	27	45	200.3205	14.6871	-10.3459	1	17.9652	-35.16166	-6.61919E-006	-0.0997498	9	0.0005571	0.0100049	1466.98
	28	47	158.0056	15.67641	-12.10878	1	19.80839	-37.68324	-6.603291E-006	-0.0997486	9	0.0005035	0.0099705	1467.522
	29	48	125.558	16.78583	-14.11115	1	21.92917	-40.05238	-6.627646E-006	-0.0997478	9	0.0004522	0.0099148	1467.431
	30	49	99.734	18.07495	-16.46049	1	24.44691	-42.32349	-6.584063E-006	-0.099749	9	0.0004012	0.0098082	1467.07
	31	51	79.44915	19.51887	-19.19955	1	27.37899	-44.52748	-8.708213E-006	-0.0997366	9	0.0003738	0.010234	1467.522
	32	52	62.91946	21.23605	-22.47824	1	30.92315	-46.62769	-8.187816E-006	-0.0997352	9	0.0003234	0.0100005	1467.07
	33	54	49.86702	23.16206	-26.34889	1	35.08197	-48.68283	-7.815708E-006	-0.0997372	9	0.0002851	0.0100006	1467.522
	34	55	38.42213	25.57929	-31.41067	1	40.50839	-50.84234	-7.406016E-006	-0.0997361	9	0.0002469	0.01	1466.98
	35	57	31.25	27.72844	-36.19601	1	45.59624	-52.54559	-7.169888E-006	-0.0997346	9	0.0002193	0.0099989	1467.522
	36	58	24.93351	30.24512	-42.37756	1	52.06366	-54.48432	-7.092383E-006	-0.099733	9	0.0001921	0.01	1466.889
	37	60	20.03205	32.81888	-49.47573	1	59.37109	-56.44238	-6.887302E-006	-0.0997346	9	0.0001684	0.01	1467.522
	38	61	15.625	35.81691	-59.2817	1	69.26162	-58.8604	-6.765019E-006	-0.0997342	9	0.0001444	0.0099999	1466.98
	39	63	12.46675	38.53382	-70.31883	1	80.18475	-61.27782	-6.678055E-006	-0.0997338	9	0.0001247	0.0100007	1466.98
	40	65	9.9734	41.1957	-83.81707	1	93.39372	-63.8261	-6.640341E-006	-0.0997366	9	0.0001071	0.009999	1466.98
	41	66	7.971939	43.82964	-100.7177	1	109.8412	-66.4826	-6.594756E-006	-0.0997355	9	9.104374E-005	0.0100003	1466.98
	42	68	6.351626	46.48615	-122.206	1	130.7489	-69.17361	-6.583201E-006	-0.0997373	9	7.648286E-005	0.01	1466.98
	43	71	5.013369	49.33709	-150.4862	1	158.3674	-71.84821	-6.523822E-006	-0.0997342	9	6.314534E-005	0.0100002	1466.889
	44	73	3.985969	52.26505	-185.1905	1	192.4244	-74.2397	-6.589212E-006	-0.0997352	9	5.196703E-005	0.0099997	1467.07
	45	75	3.175813	55.43448	-228.4496	1	235.0792	-76.36051	-6.566936E-006	-0.0997364	8	4.253872E-005	0.01	1466.98
	46	78	2.516103	59.22963	-284.6024	1	290.7003	-78.24377	-6.549951E-006	-0.0997316	8	3.354499E-005	0.0097743	1467.07
	47	82	1.99553	63.47515	-354.7382	1	360.3724	-79.85513	-6.535076E-006	-0.0997318	8	2.810806E-005	0.0101455	1467.07
	48	86	1.587906	68.45619	-441.8772	1	447.1484	-81.19367	-6.515413E-006	-0.099733	8	2.246338E-005	0.0100551	1467.07
	49	91	1.258052	74.67624	-553.6658	1	558.6791	-82.31853	-6.494638E-006	-0.0997321	8	1.792549E-005	0.0100214	1467.522
	50	97	0.997765	82.34602	-693.9345	1	698.8032	-83.23262	-6.475633E-006	-0.099732	8	1.431542E-005	0.010008	1467.342
