EXPLAIN
TAG	EISPOT
TITLE	LABEL	Potentiostatic EIS	Test Identifier
DATE	LABEL	17.7.2024	Date
TIME	LABEL	13:26:56	Time
NOTES	NOTES	1	Notes...
	
PSTAT	PSTAT	IFC1010-34090	Potentiostat
VDC	POTEN	-3.00000E-001	F	A Potential (V)
FREQINIT	QUANT	1.00000E+005	Initial Freq. (Hz)
FREQFINAL	QUANT	1.00000E+000	Final Freq. (Hz)
PTSPERDEC	QUANT	1.00000E+001	Points/decade
VAC	QUANT	1.00000E+001	AC Voltage (mV rms)
AREA	QUANT	1.00000E+000	Sample Area (cm^2)
SPEED	SELECTOR	1	Optimize for:
DRIFTCOR	SELECTOR	0	Drift Correction
THD	SELECTOR	0	THD
ZGUESS	QUANT	1.00000E+002	Estimated Z (ohms)
EOC	QUANT	0.7205974	Open Circuit (V)
SEQUENCER	TOGGLE	TRUE	Run as Sequence
PSTATMODEL	IQUANT	64	Pstat Model
PSTATSECTION	LABEL	IFC1010-34090	Pstat Section
PSTATSERIALNO	LABEL	34090	Pstat Serial Number
CTRLMODE	IQUANT	1	Control Mode
ELECTROMETER	IQUANT	0	RE=0 or CS=1
IESTAB	IQUANT	0	I/E Stability
CASPEED	IQUANT	3	Control Amp Speed
CONVENTION	IQUANT	1	Current Convention
ICHRANGE	IQUANT	2	Ich Range
ICHRANGEMODE	TOGGLE	F	Ich Auto Range
ICHOFFSETENABLE	TOGGLE	T	Ich Offset Enable
ICHOFFSET	QUANT	0	Ich Offset (V)
ICHFILTER	IQUANT	4	Ich Filter
VCHRANGE	IQUANT	2	Vch Range
VCHRANGEMODE	TOGGLE	F	Vch Auto Range
VCHOFFSETENABLE	TOGGLE	T	Vch Offset Enable
VCHOFFSET	QUANT	0	Vch Offset (V)
VCHFILTER	IQUANT	4	Vch Filter
IERANGELOWERLIMIT	IQUANT	4	I/E Range Lower Limit
IERANGEMODE	TOGGLE	F	I/E AutoRange
IERANGE	IQUANT	11	I/E Range
ACHSELECT	IQUANT	0	Ach Select
ACHRANGE	IQUANT	2	Ach Range
ACHOFFSETENABLE	TOGGLE	F	Ach Offset Enable
ACHOFFSET	QUANT	0	Ach Offset (V)
ACHFILTER	IQUANT	1	Ach Filter
SENSECABLEID	IQUANT	13	Sense Cable ID
PWRCABLEID	IQUANT	13	Power Cable ID
DCCALDATE	LABEL	1/30/2024	DC Calibration Date
ACCALDATE	LABEL	1/8/2024	AC Calibration Date
FRAMEWORKVERSION	LABEL	7.10.3	Framework Version
INSTRUMENTVERSION	LABEL	4.91	Instrument Version
COMMVERSION	LABEL	3.10	Communications Version
CPUPLDVERSION	LABEL	2.22	CPU PLD Version
CTRLPLDVERSION	LABEL	0.00	CTRL PLD Version
PSTATPLDVERSION	LABEL	0.00	PSTAT PLD Version
ZCURVE	TABLE
	Pt	Time	Freq	Zreal	Zimag	Zsig	Zmod	Zphz	Idc	Vdc	IERange	Imod	Vmod	Temp
	#	s	Hz	ohm	ohm	V	ohm	°	A	V	#	A	V	°C
	0	3	100019.5	6.840715	-1.082824	1	6.925886	-8.994778	-0.0009477	-0.2996187	10	0.0014459	0.009997	1467.703
	1	5	79511.72	6.843662	-1.050052	1	6.92375	-8.723102	-0.0009544	-0.2997192	10	0.0017059	0.0117975	1467.612
	2	6	63105.47	6.90204	-1.056472	1	6.982428	-8.702526	-0.0009576	-0.2996496	10	0.0016338	0.0113991	1468.335
	3	8	50214.84	6.963341	-1.104664	1	7.050418	-9.014282	-0.0009629	-0.299692	10	0.0015649	0.0110272	1468.155
	4	9	39902.34	7.041062	-1.205988	1	7.143596	-9.71927	-0.0009644	-0.2997155	10	0.0014981	0.0106984	1468.335
	5	11	31699.22	7.154597	-1.354127	1	7.281615	-10.71741	-0.0009678	-0.299648	10	0.0014369	0.0104606	1468.335
	6	12	25136.72	7.255571	-1.533087	1	7.415771	-11.93099	-0.0009691	-0.2996076	10	0.0013855	0.0102735	1467.793
	7	13	19980.47	7.223792	-1.709528	1	7.423318	-13.31424	-0.0009758	-0.2997244	10	0.0013695	0.0101654	1468.335
	8	15	15878.91	7.383543	-2.00441	1	7.650776	-15.18804	-0.0009776	-0.2996633	10	0.001314	0.0100528	1467.703
	9	16	12597.66	7.572588	-2.358868	1	7.931478	-17.30186	-0.0009808	-0.2996624	10	0.0012668	0.0100475	1468.335
	10	18	10019.53	7.817612	-2.770348	1	8.293967	-19.51293	-0.0009832	-0.2995796	10	0.0012027	0.0099748	1468.335
	11	19	7928.241	8.137647	-3.266495	1	8.768767	-21.87079	-0.0009848	-0.2997292	10	0.001138	0.0099787	1468.335
	12	20	6307.871	8.549218	-3.817339	1	9.362757	-24.0614	-0.0009875	-0.2997304	10	0.0010655	0.009976	1468.335
	13	22	5034.722	9.064922	-4.412093	1	10.08164	-25.95319	-0.0009914	-0.2997085	10	0.0009591	0.0096958	1467.612
	14	23	3993.056	9.74122	-5.059142	1	10.97662	-27.4453	-0.0009935	-0.2997082	10	0.000921	0.0101257	1468.245
	15	25	3144.055	10.59583	-5.719454	1	12.04092	-28.35945	-0.0010003	-0.2997604	10	0.0008318	0.010025	1467.703
	16	26	2519.531	11.53569	-6.310431	1	13.14891	-28.68021	-0.0010026	-0.2997614	10	0.0007591	0.0099872	1467.883
	17	28	2000.762	12.42072	-6.865925	1	14.19208	-28.93294	-0.0010101	-0.2997623	10	0.0007048	0.0100067	1468.245
	18	29	1580.669	13.61916	-7.414562	1	15.50668	-28.56482	-0.0010115	-0.2997622	10	0.0006442	0.0099922	1467.703
	19	30	1253.634	14.86201	-7.923574	1	16.84228	-28.06399	-0.0010135	-0.2997621	10	0.0005925	0.0099805	1468.245
	20	32	1000.702	16.07991	-8.421175	1	18.15157	-27.64141	-0.0010155	-0.2997061	10	0.0005493	0.0099711	1467.793
	21	33	790.0281	17.4973	-8.925666	1	19.64238	-27.02689	-0.001017	-0.2997085	10	0.0005088	0.0099936	1468.426
	22	35	628.811	18.96995	-9.395879	1	21.16936	-26.34936	-0.0010188	-0.2997608	10	0.0004733	0.0100199	1468.426
	23	36	502.2321	20.53761	-9.82635	1	22.76731	-25.56908	-0.0010201	-0.2997513	10	0.0004194	0.0095333	1467.974
	24	37	400.1524	22.24814	-10.19558	1	24.47304	-24.6204	-0.0010219	-0.2997532	10	0.0004201	0.010269	1468.516
	25	39	315.5048	24.14541	-10.45123	1	26.31025	-23.40516	-0.001023	-0.2997531	10	0.0003843	0.0101026	1468.491
	26	40	252.0161	26.0112	-10.52906	1	28.06143	-22.03758	-0.0010239	-0.299751	10	0.0003582	0.0100457	1468.245
	27	41	200.3205	27.87911	-10.42669	1	29.76509	-20.50562	-0.0010262	-0.2997525	10	0.0003356	0.0099866	1468.516
	28	43	158.0056	29.80497	-10.10917	1	31.47271	-18.73576	-0.0010277	-0.2997517	10	0.0003164	0.0099568	1468.335
	29	44	125.558	31.58681	-9.60946	1	33.01618	-16.92102	-0.0010287	-0.2997521	10	0.000301	0.0099362	1468.064
	30	46	99.734	33.22242	-8.966833	1	34.41124	-15.1044	-0.0010292	-0.2997511	10	0.0002849	0.0098014	1468.516
	31	47	79.44915	34.65297	-8.224661	1	35.61564	-13.35174	-0.0010306	-0.2997402	10	0.0002877	0.0102459	1468.064
	32	48	62.91946	35.94411	-7.38302	1	36.69452	-11.60727	-0.0010306	-0.2997374	10	0.0002726	0.0100036	1468.516
	33	50	49.86702	36.91899	-6.648469	1	37.51285	-10.20856	-0.0010319	-0.2997378	10	0.0002666	0.0100003	1467.974
	34	51	38.42213	37.92581	-5.750031	1	38.35922	-8.621105	-0.0010326	-0.2997406	10	0.0002607	0.0099998	1468.516
	35	53	31.25	38.31496	-5.0573	1	38.64729	-7.519166	-0.0010383	-0.2997389	10	0.0002588	0.0100013	1467.974
	36	54	24.93351	38.91535	-4.459618	1	39.17005	-6.537459	-0.0010385	-0.2997364	10	0.0002553	0.0099996	1468.516
	37	56	20.03205	39.41444	-3.90666	1	39.60758	-5.660523	-0.0010383	-0.299737	10	0.0002525	0.0100006	1467.974
	38	57	15.625	39.87175	-3.363129	1	40.01333	-4.821411	-0.0010385	-0.2997398	10	0.0002499	0.0100001	1468.516
	39	59	12.46675	40.14619	-2.927087	1	40.25276	-4.170096	-0.0010382	-0.2997366	10	0.0002484	0.0099999	1468.064
	40	61	9.9734	40.46394	-2.558527	1	40.54475	-3.617984	-0.0010381	-0.2997401	10	0.0002467	0.0100006	1467.974
	41	62	7.971939	40.73088	-2.228215	1	40.79178	-3.131289	-0.001038	-0.2997397	10	0.0002451	0.0099999	1467.974
	42	64	6.351626	40.94223	-1.944068	1	40.98836	-2.718545	-0.0010386	-0.2997396	10	0.000244	0.0099997	1467.974
	43	67	5.013369	40.36064	-1.665127	1	40.39497	-2.362467	-0.0010553	-0.2997365	10	0.0002476	0.0100004	1467.974
	44	69	3.985969	40.55377	-1.455863	1	40.5799	-2.05601	-0.0010565	-0.2997399	10	0.0002464	0.0099999	1467.974
	45	71	3.175813	40.75787	-1.271164	1	40.77768	-1.786373	-0.0010563	-0.2997387	10	0.0002452	0.0099999	1467.883
	46	74	2.516103	40.9933	-1.091392	1	41.00782	-1.525064	-0.0010559	-0.2997341	10	0.0002377	0.009771	1467.974
	47	78	1.99553	41.19323	-0.960974	1	41.20444	-1.336379	-0.0010556	-0.2997341	10	0.0002459	0.0101469	1468.584
	48	82	1.587906	41.38552	-0.8408276	1	41.39406	-1.163916	-0.0010546	-0.2997347	10	0.0002427	0.0100558	1468.064
	49	87	1.258052	41.2631	-0.7238991	1	41.26944	-1.005065	-0.0010598	-0.2997352	10	0.0002427	0.0100216	1468.064
	50	92	0.997765	41.50656	-0.638828	1	41.51147	-0.8817706	-0.0010577	-0.299734	10	0.000241	0.0100082	1468.607
