EXPLAIN
TAG	EISPOT
TITLE	LABEL	Potentiostatic EIS	Test Identifier
DATE	LABEL	2/13/2024	Date
TIME	LABEL	12:18:10	Time
NOTES	NOTES	1	Notes...
	
PSTAT	PSTAT	IFC1010-36068	Potentiostat
VDC	POTEN	-7.00000E-001	F	A Potential (V)
FREQINIT	QUANT	1.00000E+005	Initial Freq. (Hz)
FREQFINAL	QUANT	1.00000E+000	Final Freq. (Hz)
PTSPERDEC	QUANT	1.00000E+001	Points/decade
VAC	QUANT	1.00000E+001	AC Voltage (mV rms)
AREA	QUANT	1.00000E+000	Sample Area (cm^2)
SPEED	SELECTOR	1	Optimize for:
DRIFTCOR	SELECTOR	0	Drift Correction
THD	SELECTOR	0	THD
ZGUESS	QUANT	1.00000E+002	Estimated Z (ohms)
EOC	QUANT	0.3246219	Open Circuit (V)
SEQUENCER	TOGGLE	TRUE	Run as Sequence
PSTATMODEL	IQUANT	64	Pstat Model
PSTATSECTION	LABEL	IFC1010-36068	Pstat Section
PSTATSERIALNO	LABEL	36068	Pstat Serial Number
CTRLMODE	IQUANT	1	Control Mode
ELECTROMETER	IQUANT	0	RE=0 or CS=1
IESTAB	IQUANT	0	I/E Stability
CASPEED	IQUANT	3	Control Amp Speed
CONVENTION	IQUANT	1	Current Convention
ICHRANGE	IQUANT	2	Ich Range
ICHRANGEMODE	TOGGLE	F	Ich Auto Range
ICHOFFSETENABLE	TOGGLE	T	Ich Offset Enable
ICHOFFSET	QUANT	0	Ich Offset (V)
ICHFILTER	IQUANT	4	Ich Filter
VCHRANGE	IQUANT	2	Vch Range
VCHRANGEMODE	TOGGLE	F	Vch Auto Range
VCHOFFSETENABLE	TOGGLE	T	Vch Offset Enable
VCHOFFSET	QUANT	0	Vch Offset (V)
VCHFILTER	IQUANT	4	Vch Filter
IERANGELOWERLIMIT	IQUANT	4	I/E Range Lower Limit
IERANGEMODE	TOGGLE	F	I/E AutoRange
IERANGE	IQUANT	11	I/E Range
ACHSELECT	IQUANT	0	Ach Select
ACHRANGE	IQUANT	2	Ach Range
ACHOFFSETENABLE	TOGGLE	F	Ach Offset Enable
ACHOFFSET	QUANT	0	Ach Offset (V)
ACHFILTER	IQUANT	1	Ach Filter
SENSECABLEID	IQUANT	13	Sense Cable ID
PWRCABLEID	IQUANT	13	Power Cable ID
DCCALDATE	LABEL	8/11/2023	DC Calibration Date
ACCALDATE	LABEL	6/2/2023	AC Calibration Date
FRAMEWORKVERSION	LABEL	7.10.3	Framework Version
INSTRUMENTVERSION	LABEL	4.91	Instrument Version
COMMVERSION	LABEL	3.10	Communications Version
CPUPLDVERSION	LABEL	2.22	CPU PLD Version
CTRLPLDVERSION	LABEL	0.00	CTRL PLD Version
PSTATPLDVERSION	LABEL	0.00	PSTAT PLD Version
ZCURVE	TABLE
	Pt	Time	Freq	Zreal	Zimag	Zsig	Zmod	Zphz	Idc	Vdc	IERange	Imod	Vmod	Temp
	#	s	Hz	ohm	ohm	V	ohm	°	A	V	#	A	V	°C
	0	2	100019.5	14.4109	-0.4076288	1	14.41666	-1.620245	-0.0072622	-0.6997169	11	0.0007475	0.0107527	1468.155
	1	4	79511.72	15.27019	-0.4314562	1	15.27628	-1.618451	-0.0069048	-0.6996195	11	0.0007221	0.0110122	1467.974
	2	6	63105.47	16.21412	-0.461421	1	16.22068	-1.630082	-0.0065781	-0.6996211	11	0.0006547	0.0106076	1467.793
	3	7	50214.84	12.87466	-0.4066301	1	12.88108	-1.809015	-0.0079397	-0.6997191	11	0.0007892	0.0101586	1468.426
	4	9	39902.34	13.5461	-0.4623928	1	13.55399	-1.955018	-0.0076161	-0.6997206	11	0.0007602	0.0102982	1467.793
	5	10	31699.22	14.19985	-0.6260265	1	14.21364	-2.524355	-0.0073085	-0.6995864	10	0.0007048	0.0100146	1468.426
	6	12	25136.72	14.84164	-0.6978623	1	14.85804	-2.692097	-0.0070654	-0.6996844	10	0.0006848	0.0101722	1467.703
	7	13	19980.47	15.422	-0.7190661	1	15.43876	-2.669539	-0.0068886	-0.6997222	11	0.0006552	0.0101144	1468.426
	8	15	15878.91	15.966	-0.8410464	1	15.98814	-3.015401	-0.0067309	-0.6996224	11	0.0006265	0.0100156	1467.974
	9	16	12597.66	16.73775	-0.986713	1	16.76681	-3.373759	-0.0065179	-0.6996234	11	0.0005982	0.0100301	1468.37
	10	18	10019.53	16.90335	-1.232496	1	16.94822	-4.170302	-0.0064525	-0.6996878	10	0.0005905	0.0100071	1468.335
	11	19	7928.241	17.05718	-1.416445	1	17.11589	-4.747005	-0.0064303	-0.6996007	10	0.0005851	0.010014	1468.426
	12	21	6307.871	15.66099	-1.53644	1	15.73618	-5.603138	-0.0069326	-0.6996108	11	0.0006345	0.0099843	1467.974
	13	22	5034.722	16.798	-1.817685	1	16.89606	-6.175855	-0.0066057	-0.699652	11	0.0005731	0.0097258	1468.426
	14	24	3993.056	17.94302	-2.098357	1	18.0653	-6.670191	-0.0063414	-0.6996509	11	0.0005618	0.0101774	1467.793
	15	25	3144.055	14.17383	-2.016667	1	14.31657	-8.097753	-0.0079013	-0.6997065	11	0.0007019	0.0100656	1467.612
	16	27	2519.531	15.26906	-2.253578	1	15.43447	-8.395739	-0.007558	-0.6997074	11	0.0006487	0.0100232	1468.335
	17	29	2000.762	16.19398	-2.41201	1	16.37263	-8.47163	-0.0073783	-0.6997083	11	0.0006103	0.0099991	1467.703
	18	30	1580.669	17.40189	-2.560269	1	17.58922	-8.369648	-0.0071069	-0.6997074	11	0.0005683	0.0099993	1468.335
	19	32	1253.634	18.43411	-2.605499	1	18.61733	-8.044963	-0.0069282	-0.6996856	10	0.000537	0.0100003	1467.793
	20	33	1000.702	19.57263	-2.591192	1	19.74341	-7.54145	-0.0067278	-0.6996295	10	0.0005063	0.0099971	1468.335
	21	35	790.0281	20.74041	-2.488222	1	20.88913	-6.841065	-0.0065316	-0.6996283	10	0.0004784	0.0099944	1468.245
	22	36	628.811	21.26653	-2.277824	1	21.38817	-6.113551	-0.0064853	-0.6996884	10	0.0004685	0.0100214	1467.883
	23	37	502.2321	21.64283	-2.007465	1	21.73573	-5.299266	-0.0064695	-0.6996849	10	0.0004383	0.0095396	1468.245
	24	39	400.1524	18.17837	-1.326702	1	18.22672	-4.174186	-0.0075665	-0.699707	11	0.0005621	0.0102467	1467.793
	25	40	315.5048	19.31848	-1.207957	1	19.35621	-3.577964	-0.0072404	-0.6997067	11	0.0005223	0.0101087	1468.426
	26	42	252.0161	20.27692	-1.083167	1	20.30583	-3.057762	-0.006974	-0.6996794	10	0.000495	0.0100488	1467.883
	27	43	200.3205	21.29197	-0.976559	1	21.31436	-2.626037	-0.0067109	-0.6996807	10	0.0004685	0.0099839	1468.516
	28	45	158.0056	22.22243	-0.836791	1	22.23818	-2.156467	-0.0064888	-0.6996827	10	0.0004486	0.0099739	1468.426
	29	46	125.558	23.08136	-0.7377757	1	23.09315	-1.830787	-0.0063095	-0.6996878	10	0.0004273	0.0098667	1467.883
	30	47	99.734	18.93903	-0.4707746	1	18.94488	-1.42393	-0.0074242	-0.6997021	11	0.0005157	0.0097694	1468.426
	31	49	79.44915	20.21556	-0.4172211	1	20.21986	-1.182338	-0.0070664	-0.6997027	11	0.0005077	0.0102652	1467.974
	32	51	62.91946	20.07145	-0.3375055	1	20.07428	-0.96335	-0.0071219	-0.6996764	10	0.0004982	0.0100016	1468.426
	33	52	49.86702	20.75636	-0.2765456	1	20.7582	-0.7633303	-0.0069293	-0.6996818	10	0.0004818	0.0100016	1468.335
	34	53	38.42213	21.33229	-0.2142329	1	21.33337	-0.5753825	-0.0067607	-0.6996837	10	0.0004687	0.0099993	1468.426
	35	55	31.25	22.03084	-0.2642757	1	22.03243	-0.6872708	-0.0066033	-0.6996825	10	0.0004539	0.0100007	1468.426
	36	56	24.93351	22.30785	-0.1257157	1	22.3082	-0.3228865	-0.0065387	-0.699682	10	0.0004483	0.0100008	1468.155
	37	58	20.03205	20.65702	-0.1451352	1	20.65753	-0.4025507	-0.0069571	-0.6996998	11	0.0004841	0.0100006	1467.974
	38	60	15.625	21.47342	-0.2062933	1	21.47441	-0.5504187	-0.0067426	-0.6996812	10	0.0004656	0.0099991	1467.974
	39	62	12.46675	21.63583	0.0521917	1	21.63589	0.1382133	-0.0066572	-0.6996813	10	0.0004622	0.0099999	1467.883
	40	63	9.9734	22.89428	-0.18805	1	22.89506	-0.4706079	-0.0064029	-0.6996808	10	0.0004368	0.0100004	1467.974
	41	65	7.971939	19.92082	-0.1184246	1	19.92117	-0.340606	-0.0071437	-0.6996813	10	0.000502	0.0100001	1467.793
	42	69	6.351626	21.83208	-0.098478	1	21.83231	-0.2584423	-0.0066442	-0.6997029	11	0.0004581	0.010001	1467.793
	43	71	5.013369	19.12683	-0.0472781	1	19.12689	-0.1416246	-0.0074506	-0.6996772	10	0.0005228	0.0099992	1467.793
	44	75	3.985969	20.76346	-0.0611582	1	20.76355	-0.1687627	-0.0069741	-0.6997035	11	0.0004816	0.0100004	1467.793
	45	79	3.175813	21.43055	-0.2766182	1	21.43234	-0.7395132	-0.0067033	-0.6996823	10	0.0004665	0.0099992	1467.974
	46	82	2.516103	21.56768	0.2927001	1	21.56967	0.777527	-0.0065093	-0.6996729	10	0.0004487	0.0096993	1468.426
	47	85	1.99553	22.76017	0.5840549	1	22.76766	1.46996	-0.0065038	-0.6996729	10	0.0004466	0.0101812	1467.974
	48	90	1.587906	22.27553	0.4682681	1	22.28045	1.204274	-0.0066502	-0.6996789	10	0.0004518	0.0100737	1467.883
	49	100	1.258052	21.19444	0.1572814	1	21.19503	0.4251773	-0.0070009	-0.6996751	10	0.000473	0.0100309	1468.426
	50	110	0.997765	16.18115	-2.806283	1	16.42269	-9.83889	-0.0062653	-0.6996752	10	0.0006095	0.0100133	1468.426
