EXPLAIN
TAG	EISPOT
TITLE	LABEL	Potentiostatic EIS	Test Identifier
DATE	LABEL	17.7.2024	Date
TIME	LABEL	10:27:04	Time
NOTES	NOTES	1	Notes...
	
PSTAT	PSTAT	IFC1010-34090	Potentiostat
VDC	POTEN	-4.00000E-001	F	A Potential (V)
FREQINIT	QUANT	1.00000E+005	Initial Freq. (Hz)
FREQFINAL	QUANT	1.00000E+000	Final Freq. (Hz)
PTSPERDEC	QUANT	1.00000E+001	Points/decade
VAC	QUANT	1.00000E+001	AC Voltage (mV rms)
AREA	QUANT	1.00000E+000	Sample Area (cm^2)
SPEED	SELECTOR	1	Optimize for:
DRIFTCOR	SELECTOR	0	Drift Correction
THD	SELECTOR	0	THD
ZGUESS	QUANT	1.00000E+002	Estimated Z (ohms)
EOC	QUANT	0.7205974	Open Circuit (V)
SEQUENCER	TOGGLE	TRUE	Run as Sequence
PSTATMODEL	IQUANT	64	Pstat Model
PSTATSECTION	LABEL	IFC1010-34090	Pstat Section
PSTATSERIALNO	LABEL	34090	Pstat Serial Number
CTRLMODE	IQUANT	1	Control Mode
ELECTROMETER	IQUANT	0	RE=0 or CS=1
IESTAB	IQUANT	0	I/E Stability
CASPEED	IQUANT	3	Control Amp Speed
CONVENTION	IQUANT	1	Current Convention
ICHRANGE	IQUANT	2	Ich Range
ICHRANGEMODE	TOGGLE	F	Ich Auto Range
ICHOFFSETENABLE	TOGGLE	T	Ich Offset Enable
ICHOFFSET	QUANT	0	Ich Offset (V)
ICHFILTER	IQUANT	4	Ich Filter
VCHRANGE	IQUANT	2	Vch Range
VCHRANGEMODE	TOGGLE	F	Vch Auto Range
VCHOFFSETENABLE	TOGGLE	T	Vch Offset Enable
VCHOFFSET	QUANT	0	Vch Offset (V)
VCHFILTER	IQUANT	4	Vch Filter
IERANGELOWERLIMIT	IQUANT	4	I/E Range Lower Limit
IERANGEMODE	TOGGLE	F	I/E AutoRange
IERANGE	IQUANT	11	I/E Range
ACHSELECT	IQUANT	0	Ach Select
ACHRANGE	IQUANT	2	Ach Range
ACHOFFSETENABLE	TOGGLE	F	Ach Offset Enable
ACHOFFSET	QUANT	0	Ach Offset (V)
ACHFILTER	IQUANT	1	Ach Filter
SENSECABLEID	IQUANT	13	Sense Cable ID
PWRCABLEID	IQUANT	13	Power Cable ID
DCCALDATE	LABEL	1/30/2024	DC Calibration Date
ACCALDATE	LABEL	1/8/2024	AC Calibration Date
FRAMEWORKVERSION	LABEL	7.10.3	Framework Version
INSTRUMENTVERSION	LABEL	4.91	Instrument Version
COMMVERSION	LABEL	3.10	Communications Version
CPUPLDVERSION	LABEL	2.22	CPU PLD Version
CTRLPLDVERSION	LABEL	0.00	CTRL PLD Version
PSTATPLDVERSION	LABEL	0.00	PSTAT PLD Version
ZCURVE	TABLE
	Pt	Time	Freq	Zreal	Zimag	Zsig	Zmod	Zphz	Idc	Vdc	IERange	Imod	Vmod	Temp
	#	s	Hz	ohm	ohm	V	ohm	°	A	V	#	A	V	°C
	0	3	100019.5	12.77496	-1.648952	1	12.88094	-7.354894	-0.0063985	-0.3996948	10	0.0007819	0.0100541	1467.161
	1	4	79511.72	9.053066	-1.244115	1	9.138152	-7.824842	-0.0081755	-0.3996996	10	0.0011045	0.0100813	1466.98
	2	6	63105.47	9.69084	-1.022916	1	9.74468	-6.025537	-0.0079027	-0.3996743	11	0.0012281	0.0119596	1467.612
	3	7	50214.84	8.540395	-1.084235	1	8.608944	-7.235206	-0.0085818	-0.3996909	11	0.0012009	0.0103337	1467.161
	4	9	39902.34	9.492239	-1.220919	1	9.57044	-7.329304	-0.0081098	-0.399744	11	0.0010727	0.0102629	1467.752
	5	10	31699.22	9.68909	-1.425242	1	9.79335	-8.368065	-0.0080472	-0.3997529	11	0.0010381	0.010165	1467.522
	6	12	25136.72	9.91139	-1.601168	1	10.03989	-9.176748	-0.0079678	-0.3996747	11	0.0010038	0.0100769	1467.703
	7	13	19980.47	11.01872	-1.796403	1	11.16419	-9.259579	-0.0075573	-0.3997364	11	0.0008955	0.0099968	1467.793
	8	15	15878.91	11.10896	-1.963264	1	11.28111	-10.02228	-0.0076544	-0.3996928	10	0.0008885	0.0100227	1467.522
	9	16	12597.66	11.55798	-2.041833	1	11.73695	-10.0185	-0.0075619	-0.3997084	11	0.0008515	0.0099943	1467.341
	10	18	10019.53	11.93172	-2.134016	1	12.12106	-10.14027	-0.0075535	-0.39963	10	0.0008256	0.0100067	1467.522
	11	19	7928.241	12.65213	-2.156087	1	12.83453	-9.67104	-0.0073947	-0.3997825	10	0.0007757	0.0099553	1467.612
	12	21	6307.871	13.59143	-2.128528	1	13.75709	-8.900688	-0.0071709	-0.3997833	10	0.0007269	0.0100004	1467.522
	13	22	5034.722	14.10915	-2.157865	1	14.27321	-8.695484	-0.007079	-0.3997597	10	0.000681	0.009747	1467.612
	14	24	3993.056	14.41757	-2.107521	1	14.5708	-8.316438	-0.0070963	-0.3997756	11	0.0006942	0.0101316	1466.98
	15	25	3144.055	15.11182	-2.070553	1	15.25301	-7.801828	-0.0069601	-0.3998289	11	0.0006591	0.0100626	1467.612
	16	27	2519.531	15.0287	-1.993447	1	15.16033	-7.555761	-0.0071179	-0.3998283	11	0.0006604	0.0100174	1467.07
	17	29	2000.762	15.31405	-1.924828	1	15.43454	-7.163957	-0.0071063	-0.3998131	10	0.0006472	0.0099924	1467.612
	18	30	1580.669	15.97917	-1.836952	1	16.08441	-6.557888	-0.0069768	-0.3998296	11	0.0006228	0.0100191	1467.612
	19	32	1253.634	16.60553	-1.741138	1	16.69656	-5.985758	-0.0068331	-0.3998131	10	0.0005981	0.0099872	1467.612
	20	34	1000.702	13.08854	-1.391912	1	13.16234	-6.070355	-0.0086308	-0.3997744	11	0.0007586	0.0099854	1466.98
	21	36	790.0281	13.86485	-1.302129	1	13.92586	-5.365242	-0.0083188	-0.3997746	11	0.000719	0.0100133	1467.612
	22	37	628.811	14.56396	-1.227573	1	14.6156	-4.817981	-0.0080531	-0.3998298	11	0.0006828	0.0099802	1467.07
	23	38	502.2321	14.64989	-1.096506	1	14.69087	-4.280457	-0.0080907	-0.3998198	11	0.0006516	0.0095562	1467.703
	24	40	400.1524	14.7952	-1.009224	1	14.82958	-3.902267	-0.0080842	-0.3998203	11	0.0006929	0.0102626	1467.251
	25	41	315.5048	15.09649	-0.9046014	1	15.12357	-3.429137	-0.0080069	-0.3998205	11	0.0006682	0.0100977	1467.703
	26	43	252.0161	14.92616	-0.8249396	1	14.94894	-3.163407	-0.0081325	-0.3998178	11	0.0006722	0.0100436	1467.703
	27	44	200.3205	15.70133	-0.7598472	1	15.71971	-2.770599	-0.0078298	-0.3998181	11	0.0006374	0.0100167	1467.341
	28	46	158.0056	16.59753	-0.6727133	1	16.61115	-2.320981	-0.0074825	-0.3998185	11	0.0005995	0.0099555	1467.161
	29	48	125.558	16.74945	-0.6116706	1	16.76061	-2.091447	-0.0074324	-0.3998062	10	0.0005928	0.0099346	1467.703
	30	49	99.734	16.32962	-0.5774253	1	16.33982	-2.02517	-0.0076169	-0.3998193	11	0.0005998	0.0098003	1467.612
	31	51	79.44915	17.26593	-0.5164073	1	17.27365	-1.713151	-0.0073145	-0.3998053	11	0.000593	0.0102435	1467.251
	32	53	62.91946	17.45283	-0.4226736	1	17.45795	-1.387321	-0.0072243	-0.3997869	10	0.000573	0.0100037	1467.793
	33	54	49.86702	18.51005	-0.3837721	1	18.51402	-1.187753	-0.006877	-0.3998045	11	0.0005401	0.0099991	1467.251
	34	56	38.42213	18.83759	-0.3238831	1	18.84037	-0.985015	-0.0068032	-0.3997887	10	0.0005308	0.0099998	1467.703
	35	57	31.25	18.84483	-0.3164182	1	18.84748	-0.961947	-0.0068032	-0.3997918	10	0.0005306	0.010001	1467.703
	36	59	24.93351	18.0877	-0.2485844	1	18.08941	-0.7873828	-0.0068909	-0.3997887	10	0.0005528	0.0099995	1467.703
	37	60	20.03205	18.88186	-0.3337611	1	18.88481	-1.012671	-0.0068241	-0.3997887	10	0.0005296	0.0100005	1467.251
	38	62	15.625	19.09962	-0.1934998	1	19.1006	-0.5804484	-0.0067502	-0.399792	10	0.0005235	0.009999	1467.341
	39	64	12.46675	19.08436	-0.2457511	1	19.08594	-0.7377623	-0.006759	-0.3997903	10	0.000524	0.0100015	1467.703
	40	65	9.9734	19.67227	-0.316604	1	19.67482	-0.9220343	-0.006623	-0.3997897	10	0.0005082	0.0099995	1467.612
	41	67	7.971939	20.05128	-0.1763041	1	20.05206	-0.5037693	-0.0065111	-0.3997911	10	0.0004987	0.0100005	1467.251
	42	69	6.351626	15.52034	-0.1466963	1	15.52103	-0.5415366	-0.0083232	-0.3998047	11	0.0006443	0.0100002	1467.251
	43	72	5.013369	15.86065	-0.1653183	1	15.86151	-0.5971822	-0.0082486	-0.3998049	11	0.0006305	0.0100006	1467.431
	44	74	3.985969	15.11245	-0.3807382	1	15.11724	-1.443186	-0.0081302	-0.399806	11	0.0006615	0.0100002	1467.161
	45	77	3.175813	16.95198	-0.2571046	1	16.95393	-0.8689178	-0.0078097	-0.3998077	11	0.0005898	0.01	1467.161
	46	81	2.516103	17.34682	0.5128945	1	17.3544	1.693574	-0.0075189	-0.399803	11	0.0005619	0.0097741	1467.793
	47	86	1.99553	18.49657	-0.6731536	1	18.50882	-2.08427	-0.0071993	-0.3998038	11	0.0005473	0.0101455	1467.341
	48	92	1.587906	19.23985	-1.04529	1	19.26823	-3.109788	-0.0069107	-0.3998031	11	0.0005213	0.0100547	1467.251
	49	99	1.258052	16.13297	0.072746	1	16.13313	0.2583537	-0.0083178	-0.3998028	11	0.0006208	0.0100216	1467.793
	50	108	0.997765	18.3421	0.2023677	1	18.34322	0.6321165	-0.0076551	-0.3998032	11	0.0005453	0.0100078	1467.793
