EXPLAIN
TAG	EISPOT
TITLE	LABEL	Potentiostatic EIS	Test Identifier
DATE	LABEL	17.7.2024	Date
TIME	LABEL	13:28:34	Time
NOTES	NOTES	1	Notes...
	
PSTAT	PSTAT	IFC1010-34090	Potentiostat
VDC	POTEN	-4.00000E-001	F	A Potential (V)
FREQINIT	QUANT	1.00000E+005	Initial Freq. (Hz)
FREQFINAL	QUANT	1.00000E+000	Final Freq. (Hz)
PTSPERDEC	QUANT	1.00000E+001	Points/decade
VAC	QUANT	1.00000E+001	AC Voltage (mV rms)
AREA	QUANT	1.00000E+000	Sample Area (cm^2)
SPEED	SELECTOR	1	Optimize for:
DRIFTCOR	SELECTOR	0	Drift Correction
THD	SELECTOR	0	THD
ZGUESS	QUANT	1.00000E+002	Estimated Z (ohms)
EOC	QUANT	0.7205974	Open Circuit (V)
SEQUENCER	TOGGLE	TRUE	Run as Sequence
PSTATMODEL	IQUANT	64	Pstat Model
PSTATSECTION	LABEL	IFC1010-34090	Pstat Section
PSTATSERIALNO	LABEL	34090	Pstat Serial Number
CTRLMODE	IQUANT	1	Control Mode
ELECTROMETER	IQUANT	0	RE=0 or CS=1
IESTAB	IQUANT	0	I/E Stability
CASPEED	IQUANT	3	Control Amp Speed
CONVENTION	IQUANT	1	Current Convention
ICHRANGE	IQUANT	2	Ich Range
ICHRANGEMODE	TOGGLE	F	Ich Auto Range
ICHOFFSETENABLE	TOGGLE	T	Ich Offset Enable
ICHOFFSET	QUANT	0	Ich Offset (V)
ICHFILTER	IQUANT	4	Ich Filter
VCHRANGE	IQUANT	2	Vch Range
VCHRANGEMODE	TOGGLE	F	Vch Auto Range
VCHOFFSETENABLE	TOGGLE	T	Vch Offset Enable
VCHOFFSET	QUANT	0	Vch Offset (V)
VCHFILTER	IQUANT	4	Vch Filter
IERANGELOWERLIMIT	IQUANT	4	I/E Range Lower Limit
IERANGEMODE	TOGGLE	F	I/E AutoRange
IERANGE	IQUANT	11	I/E Range
ACHSELECT	IQUANT	0	Ach Select
ACHRANGE	IQUANT	2	Ach Range
ACHOFFSETENABLE	TOGGLE	F	Ach Offset Enable
ACHOFFSET	QUANT	0	Ach Offset (V)
ACHFILTER	IQUANT	1	Ach Filter
SENSECABLEID	IQUANT	13	Sense Cable ID
PWRCABLEID	IQUANT	13	Power Cable ID
DCCALDATE	LABEL	1/30/2024	DC Calibration Date
ACCALDATE	LABEL	1/8/2024	AC Calibration Date
FRAMEWORKVERSION	LABEL	7.10.3	Framework Version
INSTRUMENTVERSION	LABEL	4.91	Instrument Version
COMMVERSION	LABEL	3.10	Communications Version
CPUPLDVERSION	LABEL	2.22	CPU PLD Version
CTRLPLDVERSION	LABEL	0.00	CTRL PLD Version
PSTATPLDVERSION	LABEL	0.00	PSTAT PLD Version
ZCURVE	TABLE
	Pt	Time	Freq	Zreal	Zimag	Zsig	Zmod	Zphz	Idc	Vdc	IERange	Imod	Vmod	Temp
	#	s	Hz	ohm	ohm	V	ohm	°	A	V	#	A	V	°C
	0	3	100019.5	7.968091	-1.207086	1	8.059004	-8.614239	-0.0037956	-0.3996223	10	0.0012452	0.0100183	1467.883
	1	4	79511.72	7.124405	-1.076637	1	7.205297	-8.593492	-0.0039294	-0.3996312	10	0.0015414	0.0110932	1468.335
	2	6	63105.47	7.386981	-1.091311	1	7.467157	-8.403767	-0.0039108	-0.3996742	10	0.0015316	0.0114273	1467.793
	3	7	50214.84	7.440689	-1.139434	1	7.527427	-8.706382	-0.0039086	-0.3997416	10	0.0014537	0.0109373	1468.335
	4	9	39902.34	7.77796	-1.228052	1	7.874311	-8.972289	-0.0038958	-0.3997276	10	0.0013538	0.010657	1467.703
	5	10	31699.22	8.027184	-1.384542	1	8.145714	-9.78618	-0.0038869	-0.3996856	10	0.0012781	0.0104091	1468.426
	6	12	25136.72	8.089487	-1.565273	1	8.239532	-10.9511	-0.0038908	-0.3997407	10	0.0012386	0.0102045	1467.883
	7	13	19980.47	8.247284	-1.822091	1	8.446165	-12.45836	-0.0038863	-0.3996212	10	0.0012011	0.0101436	1468.245
	8	15	15878.91	8.414229	-2.118743	1	8.676885	-14.13352	-0.003886	-0.3996824	10	0.0011575	0.0100434	1468.335
	9	16	12597.66	8.88946	-2.488305	1	9.231152	-15.6378	-0.0038641	-0.3996538	10	0.0010851	0.0100166	1467.793
	10	17	10019.53	9.048094	-2.934464	1	9.51205	-17.96884	-0.0038682	-0.3996063	10	0.0010533	0.0100187	1468.426
	11	19	7928.241	9.58672	-3.444464	1	10.18673	-19.76313	-0.0038528	-0.3997582	10	0.0009775	0.0099576	1467.793
	12	20	6307.871	9.50694	-3.956176	1	10.29724	-22.59394	-0.0039135	-0.399758	10	0.000969	0.0099778	1468.426
	13	22	5034.722	10.10933	-4.585401	1	11.10065	-24.39815	-0.0039035	-0.399738	10	0.0008744	0.0097327	1468.335
	14	23	3993.056	11.06637	-5.253923	1	12.25024	-25.39672	-0.0038802	-0.3997375	10	0.0008259	0.0101338	1467.793
	15	24	3144.055	11.99049	-5.973088	1	13.39588	-26.48029	-0.0038722	-0.3997906	10	0.0007465	0.0100091	1468.245
	16	26	2519.531	13.16765	-6.548804	1	14.70625	-26.44301	-0.0038631	-0.3997921	10	0.00068	0.0100061	1467.612
	17	27	2000.762	14.35796	-7.143743	1	16.03696	-26.45246	-0.0038573	-0.3997908	10	0.000623	0.0099953	1468.245
	18	29	1580.669	15.26666	-7.510871	1	17.01423	-26.1962	-0.0039344	-0.3997915	10	0.0005868	0.0099856	1467.883
	19	30	1253.634	16.79908	-7.798222	1	18.52083	-24.90098	-0.0039161	-0.3997905	10	0.0005385	0.009974	1468.064
	20	32	1000.702	18.38829	-7.898105	1	20.01273	-23.2444	-0.0038986	-0.3997366	10	0.0004995	0.0099976	1468.426
	21	33	790.0281	19.53631	-7.790061	1	21.03217	-21.73954	-0.0039522	-0.3997371	10	0.000475	0.009991	1467.883
	22	34	628.811	20.82814	-7.524826	1	22.14576	-19.86386	-0.0039688	-0.3997898	10	0.0004523	0.0100161	1468.426
	23	36	502.2321	22.10598	-7.210606	1	23.25225	-18.06547	-0.0039627	-0.3997818	10	0.0004105	0.0095306	1468.426
	24	37	400.1524	23.36747	-6.809644	1	24.33947	-16.24694	-0.0039488	-0.3997802	10	0.0004223	0.0102667	1467.974
	25	38	315.5048	24.27728	-6.292419	1	25.07949	-14.53072	-0.0039735	-0.3997797	10	0.0004031	0.0101004	1468.607
	26	40	252.0161	25.18757	-5.839186	1	25.85555	-13.05221	-0.0039712	-0.3997811	10	0.0003887	0.0100458	1468.516
	27	41	200.3205	26.10183	-5.396369	1	26.65382	-11.68093	-0.003958	-0.3997798	10	0.0003748	0.0099862	1468.155
	28	42	158.0056	26.89612	-4.972979	1	27.352	-10.47544	-0.0039505	-0.3997781	10	0.0003652	0.0099881	1468.607
	29	44	125.558	27.69699	-4.624115	1	28.08035	-9.478322	-0.0039326	-0.3997827	10	0.0003528	0.0099055	1467.974
	30	45	99.734	28.36503	-4.302269	1	28.68945	-8.624607	-0.0039249	-0.3997792	10	0.0003417	0.0098009	1468.516
	31	47	79.44915	28.77725	-4.018379	1	29.05645	-7.949232	-0.0039462	-0.3997671	10	0.0003531	0.010259	1468.516
	32	48	62.91946	29.3571	-3.739002	1	29.59424	-7.258273	-0.0039385	-0.3997657	10	0.000338	0.0100034	1468.516
	33	49	49.86702	29.79121	-3.527934	1	29.99937	-6.753628	-0.0039457	-0.399765	10	0.0003334	0.0100009	1468.516
	34	51	38.42213	30.43386	-3.259853	1	30.60794	-6.113797	-0.00394	-0.3997663	10	0.0003267	0.0099998	1468.064
	35	52	31.25	30.94232	-3.016617	1	31.08902	-5.568262	-0.0039282	-0.3997667	10	0.0003217	0.0100021	1468.516
	36	54	24.93351	31.54626	-2.793072	1	31.66967	-5.059712	-0.0039072	-0.3997664	10	0.0003157	0.0099992	1467.974
	37	55	20.03205	32.00613	-2.57568	1	32.1096	-4.600939	-0.0038953	-0.3997662	10	0.0003114	0.0099996	1468.607
	38	57	15.625	32.34946	-2.322264	1	32.43271	-4.106037	-0.0038997	-0.3997694	10	0.0003083	0.0099996	1468.155
	39	59	12.46675	32.68113	-2.088877	1	32.74781	-3.657196	-0.0038967	-0.3997694	10	0.0003054	0.0100005	1468.064
	40	60	9.9734	33.09568	-1.889027	1	33.14955	-3.266769	-0.0038754	-0.3997672	10	0.0003017	0.01	1467.974
	41	62	7.971939	33.27488	-1.634364	1	33.31499	-2.81194	-0.0038772	-0.3997672	10	0.0003002	0.0100006	1467.974
	42	64	6.351626	33.34161	-1.489143	1	33.37484	-2.557314	-0.0039057	-0.39977	10	0.0002996	0.0099997	1467.974
	43	66	5.013369	33.71143	-1.250493	1	33.73462	-2.124358	-0.0038823	-0.3997664	10	0.0002965	0.0100007	1467.974
	44	69	3.985969	33.70925	-1.082254	1	33.72662	-1.83888	-0.0038752	-0.3997701	10	0.0002965	0.0099997	1467.974
	45	71	3.175813	34.04233	-0.997572	1	34.05695	-1.678508	-0.0038643	-0.3997681	10	0.0002936	0.0100004	1468.516
	46	74	2.516103	33.76773	-1.494382	1	33.80078	-2.533957	-0.0039059	-0.3997648	10	0.0002884	0.009771	1468.064
	47	78	1.99553	32.73762	-0.6678138	1	32.74443	-1.168613	-0.0040154	-0.3997634	10	0.0003094	0.0101465	1468.155
	48	82	1.587906	32.90794	-0.614	1	32.91367	-1.068907	-0.0040271	-0.399764	10	0.0003052	0.0100557	1468.064
	49	87	1.258052	32.69627	-0.4316342	1	32.69912	-0.7563364	-0.0039976	-0.3997626	10	0.0003063	0.0100217	1468.607
	50	92	0.997765	33.43375	-0.2505056	1	33.43468	-0.4292861	-0.0039833	-0.399763	10	0.0002992	0.0100082	1468.064
