EXPLAIN
TAG	EISPOT
TITLE	LABEL	Potentiostatic EIS	Test Identifier
DATE	LABEL	17.7.2024	Date
TIME	LABEL	10:23:32	Time
NOTES	NOTES	1	Notes...
	
PSTAT	PSTAT	IFC1010-34090	Potentiostat
VDC	POTEN	-2.00000E-001	F	A Potential (V)
FREQINIT	QUANT	1.00000E+005	Initial Freq. (Hz)
FREQFINAL	QUANT	1.00000E+000	Final Freq. (Hz)
PTSPERDEC	QUANT	1.00000E+001	Points/decade
VAC	QUANT	1.00000E+001	AC Voltage (mV rms)
AREA	QUANT	1.00000E+000	Sample Area (cm^2)
SPEED	SELECTOR	1	Optimize for:
DRIFTCOR	SELECTOR	0	Drift Correction
THD	SELECTOR	0	THD
ZGUESS	QUANT	1.00000E+002	Estimated Z (ohms)
EOC	QUANT	0.7205974	Open Circuit (V)
SEQUENCER	TOGGLE	TRUE	Run as Sequence
PSTATMODEL	IQUANT	64	Pstat Model
PSTATSECTION	LABEL	IFC1010-34090	Pstat Section
PSTATSERIALNO	LABEL	34090	Pstat Serial Number
CTRLMODE	IQUANT	1	Control Mode
ELECTROMETER	IQUANT	0	RE=0 or CS=1
IESTAB	IQUANT	0	I/E Stability
CASPEED	IQUANT	3	Control Amp Speed
CONVENTION	IQUANT	1	Current Convention
ICHRANGE	IQUANT	2	Ich Range
ICHRANGEMODE	TOGGLE	F	Ich Auto Range
ICHOFFSETENABLE	TOGGLE	T	Ich Offset Enable
ICHOFFSET	QUANT	0	Ich Offset (V)
ICHFILTER	IQUANT	4	Ich Filter
VCHRANGE	IQUANT	2	Vch Range
VCHRANGEMODE	TOGGLE	F	Vch Auto Range
VCHOFFSETENABLE	TOGGLE	T	Vch Offset Enable
VCHOFFSET	QUANT	0	Vch Offset (V)
VCHFILTER	IQUANT	4	Vch Filter
IERANGELOWERLIMIT	IQUANT	4	I/E Range Lower Limit
IERANGEMODE	TOGGLE	F	I/E AutoRange
IERANGE	IQUANT	11	I/E Range
ACHSELECT	IQUANT	0	Ach Select
ACHRANGE	IQUANT	2	Ach Range
ACHOFFSETENABLE	TOGGLE	F	Ach Offset Enable
ACHOFFSET	QUANT	0	Ach Offset (V)
ACHFILTER	IQUANT	1	Ach Filter
SENSECABLEID	IQUANT	13	Sense Cable ID
PWRCABLEID	IQUANT	13	Power Cable ID
DCCALDATE	LABEL	1/30/2024	DC Calibration Date
ACCALDATE	LABEL	1/8/2024	AC Calibration Date
FRAMEWORKVERSION	LABEL	7.10.3	Framework Version
INSTRUMENTVERSION	LABEL	4.91	Instrument Version
COMMVERSION	LABEL	3.10	Communications Version
CPUPLDVERSION	LABEL	2.22	CPU PLD Version
CTRLPLDVERSION	LABEL	0.00	CTRL PLD Version
PSTATPLDVERSION	LABEL	0.00	PSTAT PLD Version
ZCURVE	TABLE
	Pt	Time	Freq	Zreal	Zimag	Zsig	Zmod	Zphz	Idc	Vdc	IERange	Imod	Vmod	Temp
	#	s	Hz	ohm	ohm	V	ohm	°	A	V	#	A	V	°C
	0	4	100019.5	6.91044	-1.101814	1	6.997727	-9.059097	-2.695679E-005	-0.1996524	10	0.0014306	0.009994	1467.431
	1	5	79511.72	6.888291	-1.06379	1	6.96995	-8.779094	-2.593729E-005	-0.19965	10	0.0016926	0.0117834	1467.522
	2	7	63105.47	6.931262	-1.053941	1	7.010933	-8.645951	-2.463665E-005	-0.1995888	10	0.001624	0.0113767	1466.889
	3	9	50214.84	6.99824	-1.08086	1	7.081216	-8.77981	-2.341472E-005	-0.1996437	10	0.001552	0.0109845	1467.522
	4	10	39902.34	7.099042	-1.133641	1	7.188988	-9.072919	-2.014608E-005	-0.1996334	10	0.0014864	0.0106822	1466.889
	5	12	31699.22	7.231232	-1.199794	1	7.330091	-9.420603	-1.830248E-005	-0.1995764	10	0.0014247	0.0104413	1467.522
	6	13	25136.72	7.396005	-1.273798	1	7.504895	-9.77206	-1.772133E-005	-0.1997132	10	0.0013631	0.0102287	1466.98
	7	15	19980.47	7.586966	-1.340652	1	7.704505	-10.02098	-1.688748E-005	-0.1996312	10	0.0013153	0.0101331	1467.522
	8	16	15878.91	7.790126	-1.394593	1	7.913972	-10.14961	-1.325704E-005	-0.1996174	10	0.0012707	0.0100557	1467.522
	9	18	12597.66	8.001313	-1.438226	1	8.129545	-10.19003	-1.255825E-005	-0.1995767	10	0.0012305	0.0100033	1467.522
	10	19	10019.53	8.199504	-1.471083	1	8.330423	-10.17129	-1.269469E-005	-0.1997174	10	0.0012	0.0099963	1466.889
	11	21	7928.241	8.390999	-1.510826	1	8.525928	-10.20692	-9.323257E-006	-0.1997199	10	0.001171	0.0099841	1467.522
	12	22	6307.871	8.564383	-1.567524	1	8.706652	-10.37194	-8.934162E-006	-0.199722	10	0.0011453	0.009972	1466.889
	13	24	5034.722	8.727487	-1.647555	1	8.881636	-10.69036	-9.940964E-006	-0.1997012	10	0.0010948	0.0097503	1467.522
	14	25	3993.056	8.894669	-1.76472	1	9.068041	-11.22187	-9.600406E-006	-0.1997012	10	0.0011167	0.0101423	1466.799
	15	26	3144.055	9.07386	-1.92752	1	9.276329	-11.99282	-9.45346E-006	-0.1997538	10	0.0010845	0.0100697	1467.341
	16	28	2519.531	9.249977	-2.120363	1	9.48989	-12.9108	-9.260956E-006	-0.1997532	10	0.0010552	0.0100193	1467.341
	17	29	2000.762	9.450122	-2.36907	1	9.74255	-14.07355	-9.058685E-006	-0.1997533	10	0.0010248	0.0099878	1466.98
	18	31	1580.669	9.67692	-2.681317	1	10.04153	-15.48718	-8.812074E-006	-0.1997545	10	0.000994	0.0099836	1467.341
	19	32	1253.634	9.92607	-3.052266	1	10.38476	-17.09266	-8.747369E-006	-0.1997548	10	0.0009638	0.0100101	1467.431
	20	34	1000.702	10.19799	-3.485401	1	10.77716	-18.86905	-8.394312E-006	-0.1997016	10	0.0009282	0.0100044	1467.341
	21	35	790.0281	10.52032	-4.028357	1	11.2652	-20.95245	-8.405594E-006	-0.1997015	10	0.0008848	0.0099678	1467.341
	22	37	628.811	10.87539	-4.656017	1	11.83016	-23.17694	-8.690316E-006	-0.1997558	10	0.0008448	0.009994	1467.431
	23	38	502.2321	11.27786	-5.388555	1	12.49907	-25.53844	-8.717238E-006	-0.199747	10	0.0007668	0.009569	1466.98
	24	40	400.1524	11.74886	-6.268341	1	13.31645	-28.08115	-8.815589E-006	-0.1997479	10	0.0007701	0.0102427	1467.522
	25	41	315.5048	12.3269	-7.361817	1	14.35788	-30.84632	-8.776489E-006	-0.1997447	10	0.0007045	0.0101066	1466.98
	26	42	252.0161	12.97277	-8.582999	1	15.55509	-33.48927	-9.366122E-006	-0.1997451	10	0.0006464	0.01005	1467.341
	27	44	200.3205	13.74958	-10.0477	1	17.0296	-36.158	-9.45495E-006	-0.1997445	10	0.0005868	0.0099887	1467.703
	28	45	158.0056	14.69681	-11.84436	1	18.87552	-38.86582	-1.036792E-005	-0.1997442	9	0.0005284	0.0099713	1466.98
	29	46	125.558	15.78962	-13.87084	1	21.01695	-41.29861	-1.051737E-005	-0.1997471	9	0.0004719	0.0099163	1467.522
	30	48	99.734	17.08049	-16.24567	1	23.57255	-43.56504	-1.057521E-005	-0.1997442	9	0.0004161	0.0098087	1467.161
	31	49	79.44915	18.57343	-18.98929	1	26.56249	-45.6343	-1.271071E-005	-0.1997304	9	0.0003858	0.0102485	1467.07
	32	51	62.91946	20.40121	-22.27292	1	30.20417	-47.51142	-1.241028E-005	-0.19973	9	0.0003311	0.0099996	1467.522
	33	52	49.86702	22.56489	-26.07905	1	34.4861	-49.13202	-1.236435E-005	-0.1997323	9	0.00029	0.010001	1467.07
	34	54	38.42213	25.39291	-31.14909	1	40.18788	-50.8129	-1.226502E-005	-0.1997298	9	0.0002489	0.0100016	1467.522
	35	55	31.25	28.05692	-35.79123	1	45.4775	-51.90693	-1.224898E-005	-0.1997339	9	0.0002198	0.0099965	1466.98
	36	57	24.93351	31.4577	-41.70681	1	52.24026	-52.97428	-1.243235E-005	-0.1997304	9	0.0001914	0.0100004	1467.522
	37	58	20.03205	35.27109	-48.36	1	59.85599	-53.89507	-1.246145E-005	-0.1997294	9	0.0001671	0.0099993	1467.07
	38	60	15.625	40.43885	-57.3392	1	70.1647	-54.80634	-1.260238E-005	-0.1997335	9	0.0001425	0.0100002	1466.98
	39	61	12.46675	46.15963	-67.06902	1	81.41846	-55.46267	-1.263704E-005	-0.1997313	9	0.0001228	0.0100004	1467.522
	40	63	9.9734	53.22018	-78.43967	1	94.79014	-55.84368	-1.264248E-005	-0.1997303	9	0.0001055	0.0100005	1467.07
	41	65	7.971939	62.3115	-91.72393	1	110.8873	-55.81026	-1.260881E-005	-0.1997319	9	9.017827E-005	0.0099996	1466.98
	42	67	6.351626	74.51263	-106.9462	1	130.3442	-55.1339	-1.192505E-005	-0.1997321	9	7.672187E-005	0.0100002	1466.98
	43	70	5.013369	91.26046	-124.1895	1	154.1152	-53.68975	-1.149144E-005	-0.1997294	9	6.488764E-005	0.0100002	1466.98
	44	73	3.985969	112.3211	-141.1006	1	180.348	-51.47896	-1.124995E-005	-0.1997322	9	5.544652E-005	0.0099997	1467.07
	45	76	3.175813	138.0747	-156.306	1	208.5574	-48.54386	-1.088468E-005	-0.1997312	9	4.794951E-005	0.0100002	1467.07
	46	80	2.516103	169.373	-168.3193	1	238.7857	-44.82122	-1.055858E-005	-0.1997268	8	4.082785E-005	0.0097718	1467.522
	47	85	1.99553	202.0983	-174.6617	1	267.1151	-40.83493	-1.042038E-005	-0.1997261	8	3.792195E-005	0.0101457	1467.612
	48	90	1.587906	233.8322	-176.6114	1	293.0343	-37.06342	-9.972465E-006	-0.199728	8	3.427719E-005	0.010055	1467.07
	49	97	1.258052	263.2613	-174.6311	1	315.9154	-33.5578	-9.636946E-006	-0.1997278	8	3.169944E-005	0.0100212	1467.07
	50	105	0.997765	289.2083	-172.1283	1	336.5555	-30.75987	-9.804659E-006	-0.1997279	8	2.972438E-005	0.0100083	1467.07
