EXPLAIN
TAG	EISPOT
TITLE	LABEL	Potentiostatic EIS	Test Identifier
DATE	LABEL	2/13/2024	Date
TIME	LABEL	8:59:25	Time
NOTES	NOTES	1	Notes...
	
PSTAT	PSTAT	IFC1010-36068	Potentiostat
VDC	POTEN	-5.00000E-001	F	A Potential (V)
FREQINIT	QUANT	1.00000E+005	Initial Freq. (Hz)
FREQFINAL	QUANT	1.00000E+000	Final Freq. (Hz)
PTSPERDEC	QUANT	1.00000E+001	Points/decade
VAC	QUANT	1.00000E+001	AC Voltage (mV rms)
AREA	QUANT	1.00000E+000	Sample Area (cm^2)
SPEED	SELECTOR	1	Optimize for:
DRIFTCOR	SELECTOR	0	Drift Correction
THD	SELECTOR	0	THD
ZGUESS	QUANT	1.00000E+002	Estimated Z (ohms)
EOC	QUANT	0.3246219	Open Circuit (V)
SEQUENCER	TOGGLE	TRUE	Run as Sequence
PSTATMODEL	IQUANT	64	Pstat Model
PSTATSECTION	LABEL	IFC1010-36068	Pstat Section
PSTATSERIALNO	LABEL	36068	Pstat Serial Number
CTRLMODE	IQUANT	1	Control Mode
ELECTROMETER	IQUANT	0	RE=0 or CS=1
IESTAB	IQUANT	0	I/E Stability
CASPEED	IQUANT	3	Control Amp Speed
CONVENTION	IQUANT	1	Current Convention
ICHRANGE	IQUANT	2	Ich Range
ICHRANGEMODE	TOGGLE	F	Ich Auto Range
ICHOFFSETENABLE	TOGGLE	T	Ich Offset Enable
ICHOFFSET	QUANT	0	Ich Offset (V)
ICHFILTER	IQUANT	4	Ich Filter
VCHRANGE	IQUANT	2	Vch Range
VCHRANGEMODE	TOGGLE	F	Vch Auto Range
VCHOFFSETENABLE	TOGGLE	T	Vch Offset Enable
VCHOFFSET	QUANT	0	Vch Offset (V)
VCHFILTER	IQUANT	4	Vch Filter
IERANGELOWERLIMIT	IQUANT	4	I/E Range Lower Limit
IERANGEMODE	TOGGLE	F	I/E AutoRange
IERANGE	IQUANT	11	I/E Range
ACHSELECT	IQUANT	0	Ach Select
ACHRANGE	IQUANT	2	Ach Range
ACHOFFSETENABLE	TOGGLE	F	Ach Offset Enable
ACHOFFSET	QUANT	0	Ach Offset (V)
ACHFILTER	IQUANT	1	Ach Filter
SENSECABLEID	IQUANT	13	Sense Cable ID
PWRCABLEID	IQUANT	13	Power Cable ID
DCCALDATE	LABEL	8/11/2023	DC Calibration Date
ACCALDATE	LABEL	6/2/2023	AC Calibration Date
FRAMEWORKVERSION	LABEL	7.10.3	Framework Version
INSTRUMENTVERSION	LABEL	4.91	Instrument Version
COMMVERSION	LABEL	3.10	Communications Version
CPUPLDVERSION	LABEL	2.22	CPU PLD Version
CTRLPLDVERSION	LABEL	0.00	CTRL PLD Version
PSTATPLDVERSION	LABEL	0.00	PSTAT PLD Version
ZCURVE	TABLE
	Pt	Time	Freq	Zreal	Zimag	Zsig	Zmod	Zphz	Idc	Vdc	IERange	Imod	Vmod	Temp
	#	s	Hz	ohm	ohm	V	ohm	°	A	V	#	A	V	°C
	0	3	100019.5	12.14127	-0.6783344	1	12.1602	-3.197798	-0.000847	-0.4998608	10	0.000823	0.0099823	1467.703
	1	5	79511.72	12.13536	-0.6223954	1	12.15131	-2.935999	-0.0007982	-0.4997487	10	0.0009365	0.0113591	1468.245
	2	6	63105.47	12.15742	-0.6354973	1	12.17401	-2.992265	-0.0007614	-0.4997487	10	0.0009038	0.0109895	1467.612
	3	8	50214.84	12.21639	-0.6499135	1	12.23366	-3.045273	-0.0007317	-0.4998653	10	0.000873	0.0106718	1468.245
	4	9	39902.34	12.29968	-0.6931393	1	12.31919	-3.22545	-0.0007067	-0.4998657	10	0.0008476	0.0104368	1467.612
	5	11	31699.22	12.40603	-0.7573187	1	12.42912	-3.493252	-0.0006857	-0.4998651	10	0.0008274	0.0102803	1468.245
	6	12	25136.72	12.52735	-0.8532846	1	12.55638	-3.89661	-0.0006654	-0.4997504	10	0.0008115	0.0101871	1467.612
	7	13	19980.47	12.66176	-0.970266	1	12.69888	-4.381993	-0.0006498	-0.4998671	10	0.0007961	0.0101083	1468.245
	8	15	15878.91	12.8246	-1.119566	1	12.87337	-4.989177	-0.0006367	-0.4998665	10	0.0007828	0.0100765	1468.064
	9	16	12597.66	12.99076	-1.305035	1	13.05615	-5.736614	-0.0006234	-0.4997509	10	0.0007672	0.0100162	1467.793
	10	18	10019.53	13.1774	-1.521879	1	13.26499	-6.587993	-0.0006104	-0.4998678	10	0.0007569	0.0100395	1468.245
	11	19	7928.241	13.37863	-1.784704	1	13.49715	-7.598374	-0.0005969	-0.4997965	10	0.0007397	0.0099837	1467.612
	12	21	6307.871	13.54784	-2.07329	1	13.70557	-8.700741	-0.0005888	-0.4997991	10	0.0007309	0.0100171	1468.245
	13	22	5034.722	13.8004	-2.437569	1	14.01402	-10.01686	-0.0005811	-0.49981	10	0.0006889	0.009697	1467.522
	14	23	3993.056	14.06933	-2.882351	1	14.36155	-11.57785	-0.0005733	-0.4998108	10	0.0007069	0.0101796	1468.064
	15	25	3144.055	14.44042	-3.424378	1	14.8409	-13.3406	-0.0005655	-0.4998683	10	0.0006766	0.0100586	1467.883
	16	26	2519.531	14.83532	-4.005965	1	15.36667	-15.11112	-0.0005591	-0.4998684	10	0.0006532	0.0100481	1467.703
	17	28	2000.762	15.31565	-4.745752	1	16.03407	-17.21627	-0.0005514	-0.4998679	10	0.0006227	0.0099909	1468.155
	18	29	1580.669	15.9325	-5.610123	1	16.89136	-19.3981	-0.0005465	-0.4998673	10	0.0005912	0.0099896	1467.612
	19	31	1253.634	16.658	-6.609929	1	17.9215	-21.64328	-0.0005409	-0.4998662	10	0.0005588	0.0100163	1468.155
	20	32	1000.702	17.51532	-7.766728	1	19.16008	-23.91369	-0.0005342	-0.4998109	10	0.0005208	0.009981	1467.522
	21	33	790.0281	18.57411	-9.080524	1	20.67495	-26.05312	-0.0005307	-0.4998108	10	0.0004839	0.0100065	1468.245
	22	35	628.811	19.83272	-10.55226	1	22.46524	-28.01581	-0.000527	-0.499869	10	0.0004451	0.0099996	1468.155
	23	36	502.2321	21.23055	-12.09717	1	24.43517	-29.67449	-0.0005248	-0.4998681	10	0.0003902	0.009547	1467.703
	24	37	400.1524	23.08309	-13.90666	1	26.94855	-31.06733	-0.000521	-0.4998678	10	0.0003804	0.0102531	1468.335
	25	39	315.5048	25.48297	-15.90058	1	30.03681	-31.96288	-0.000517	-0.4998679	10	0.0003357	0.0100817	1468.307
	26	40	252.0161	28.21341	-17.85929	1	33.39088	-32.3341	-0.0005125	-0.4998631	10	0.0003011	0.0100528	1468.064
	27	42	200.3205	31.48977	-19.79118	1	37.19269	-32.14918	-0.0005086	-0.4998623	10	0.0002685	0.0099862	1468.245
	28	43	158.0056	35.45435	-21.6249	1	41.52887	-31.38054	-0.0005042	-0.4998634	10	0.0002403	0.0099769	1468.064
	29	44	125.558	39.83957	-23.09	1	46.04714	-30.09549	-0.0004988	-0.4998557	9	0.0002144	0.0098718	1467.883
	30	46	99.734	44.55416	-24.03738	1	50.62479	-28.34727	-0.0004956	-0.4998512	9	0.0001925	0.009743	1468.245
	31	47	79.44915	49.49525	-24.46197	1	55.21021	-26.2999	-0.0004925	-0.4998538	9	0.0001863	0.0102832	1467.703
	32	49	62.91946	54.74408	-24.20214	1	59.85531	-23.85003	-0.0004879	-0.4998476	9	0.0001671	0.0100012	1468.245
	33	50	49.86702	59.25237	-23.21401	1	63.63752	-21.39435	-0.0004874	-0.499853	9	0.0001572	0.0100026	1467.793
	34	52	38.42213	64.59579	-21.51937	1	68.08597	-18.42492	-0.0004827	-0.4998529	9	0.0001469	0.0099991	1468.155
	35	53	31.25	68.15556	-19.7536	1	70.96044	-16.16324	-0.0004805	-0.4998524	9	0.0001409	0.0099997	1467.703
	36	55	24.93351	71.99321	-17.77136	1	74.15419	-13.86613	-0.0004757	-0.4998524	9	0.0001349	0.0100005	1467.703
	37	57	20.03205	74.86981	-15.64028	1	76.48599	-11.79938	-0.000473	-0.4998476	9	0.0001307	0.0099994	1467.703
	38	58	15.625	77.58741	-13.20929	1	78.70382	-9.66199	-0.00047	-0.4998525	9	0.0001271	0.01	1468.155
	39	60	12.46675	79.9736	-11.1722	1	80.75021	-7.952674	-0.0004652	-0.4998532	9	0.0001238	0.0100003	1468.155
	40	62	9.9734	81.68448	-9.252581	1	82.20684	-6.462474	-0.0004619	-0.4998534	9	0.0001216	0.0099997	1467.612
	41	64	7.971939	83.45379	-7.528423	1	83.79267	-5.154738	-0.0004567	-0.4998533	9	0.0001193	0.0100002	1467.612
	42	67	6.351626	84.94892	-5.975348	1	85.15881	-4.023585	-0.000452	-0.4998541	9	0.0001174	0.0100003	1467.612
	43	69	5.013369	85.26678	-4.464124	1	85.38356	-2.996972	-0.0004518	-0.4998485	9	0.0001171	0.0100003	1467.612
	44	72	3.985969	86.61687	-3.278142	1	86.67888	-2.167408	-0.0004461	-0.4998535	9	0.0001154	0.0099997	1467.612
	45	76	3.175813	88.03089	-2.274228	1	88.06026	-1.479874	-0.0004399	-0.4998555	9	0.0001136	0.01	1467.612
	46	79	2.516103	88.7262	-1.508027	1	88.73901	-0.973729	-0.0004355	-0.4998454	9	0.0001091	0.0096996	1468.245
	47	84	1.99553	89.80667	-0.4743751	1	89.80792	-0.3026438	-0.0004299	-0.4998449	9	0.0001132	0.0101811	1467.703
	48	90	1.587906	91.44385	0.0661903	1	91.44387	0.0414727	-0.000421	-0.4998508	9	0.0001101	0.0100736	1467.703
	49	97	1.258052	93.7201	0.7416354	1	93.72304	0.4533893	-0.0004116	-0.4998454	9	0.000107	0.010031	1467.793
	50	105	0.997765	95.7737	1.045089	1	95.7794	0.6251903	-0.000402	-0.4998442	9	0.0001045	0.0100128	1468.245
