EXPLAIN
TAG	EISPOT
TITLE	LABEL	Potentiostatic EIS	Test Identifier
DATE	LABEL	17.7.2024	Date
TIME	LABEL	10:25:24	Time
NOTES	NOTES	1	Notes...
	
PSTAT	PSTAT	IFC1010-34090	Potentiostat
VDC	POTEN	-3.00000E-001	F	A Potential (V)
FREQINIT	QUANT	1.00000E+005	Initial Freq. (Hz)
FREQFINAL	QUANT	1.00000E+000	Final Freq. (Hz)
PTSPERDEC	QUANT	1.00000E+001	Points/decade
VAC	QUANT	1.00000E+001	AC Voltage (mV rms)
AREA	QUANT	1.00000E+000	Sample Area (cm^2)
SPEED	SELECTOR	1	Optimize for:
DRIFTCOR	SELECTOR	0	Drift Correction
THD	SELECTOR	0	THD
ZGUESS	QUANT	1.00000E+002	Estimated Z (ohms)
EOC	QUANT	0.7205974	Open Circuit (V)
SEQUENCER	TOGGLE	TRUE	Run as Sequence
PSTATMODEL	IQUANT	64	Pstat Model
PSTATSECTION	LABEL	IFC1010-34090	Pstat Section
PSTATSERIALNO	LABEL	34090	Pstat Serial Number
CTRLMODE	IQUANT	1	Control Mode
ELECTROMETER	IQUANT	0	RE=0 or CS=1
IESTAB	IQUANT	0	I/E Stability
CASPEED	IQUANT	3	Control Amp Speed
CONVENTION	IQUANT	1	Current Convention
ICHRANGE	IQUANT	2	Ich Range
ICHRANGEMODE	TOGGLE	F	Ich Auto Range
ICHOFFSETENABLE	TOGGLE	T	Ich Offset Enable
ICHOFFSET	QUANT	0	Ich Offset (V)
ICHFILTER	IQUANT	4	Ich Filter
VCHRANGE	IQUANT	2	Vch Range
VCHRANGEMODE	TOGGLE	F	Vch Auto Range
VCHOFFSETENABLE	TOGGLE	T	Vch Offset Enable
VCHOFFSET	QUANT	0	Vch Offset (V)
VCHFILTER	IQUANT	4	Vch Filter
IERANGELOWERLIMIT	IQUANT	4	I/E Range Lower Limit
IERANGEMODE	TOGGLE	F	I/E AutoRange
IERANGE	IQUANT	11	I/E Range
ACHSELECT	IQUANT	0	Ach Select
ACHRANGE	IQUANT	2	Ach Range
ACHOFFSETENABLE	TOGGLE	F	Ach Offset Enable
ACHOFFSET	QUANT	0	Ach Offset (V)
ACHFILTER	IQUANT	1	Ach Filter
SENSECABLEID	IQUANT	13	Sense Cable ID
PWRCABLEID	IQUANT	13	Power Cable ID
DCCALDATE	LABEL	1/30/2024	DC Calibration Date
ACCALDATE	LABEL	1/8/2024	AC Calibration Date
FRAMEWORKVERSION	LABEL	7.10.3	Framework Version
INSTRUMENTVERSION	LABEL	4.91	Instrument Version
COMMVERSION	LABEL	3.10	Communications Version
CPUPLDVERSION	LABEL	2.22	CPU PLD Version
CTRLPLDVERSION	LABEL	0.00	CTRL PLD Version
PSTATPLDVERSION	LABEL	0.00	PSTAT PLD Version
ZCURVE	TABLE
	Pt	Time	Freq	Zreal	Zimag	Zsig	Zmod	Zphz	Idc	Vdc	IERange	Imod	Vmod	Temp
	#	s	Hz	ohm	ohm	V	ohm	°	A	V	#	A	V	°C
	0	3	100019.5	7.372871	-1.156292	1	7.462992	-8.913132	-0.0024572	-0.2997475	10	0.0013441	0.0100137	1467.431
	1	4	79511.72	7.542619	-1.134972	1	7.627533	-8.557357	-0.0024299	-0.2996528	10	0.0015533	0.011834	1467.522
	2	6	63105.47	7.709381	-1.143978	1	7.793795	-8.4404	-0.0024093	-0.2996743	10	0.0014534	0.0113184	1467.522
	3	8	50214.84	8.007618	-1.192151	1	8.095874	-8.467835	-0.0023799	-0.2996138	10	0.0013488	0.0109141	1467.522
	4	9	39902.34	8.18881	-1.256192	1	8.284602	-8.721386	-0.0023659	-0.2996874	10	0.0012781	0.0105848	1466.889
	5	11	31699.22	8.435627	-1.354243	1	8.543639	-9.120359	-0.002351	-0.2996921	10	0.0012105	0.0103402	1467.522
	6	12	25136.72	8.795097	-1.452867	1	8.914289	-9.380015	-0.0023294	-0.2997449	10	0.0011431	0.0101883	1466.889
	7	14	19980.47	9.179222	-1.545933	1	9.308493	-9.55985	-0.0023057	-0.2996042	10	0.0010831	0.0100808	1467.522
	8	15	15878.91	9.61442	-1.621147	1	9.75014	-9.57097	-0.002284	-0.2996733	10	0.0010272	0.0100148	1466.98
	9	17	12597.66	8.783738	-1.546258	1	8.918798	-9.98385	-0.002439	-0.2996778	10	0.0011245	0.0100285	1467.522
	10	18	10019.53	9.2055	-1.602904	1	9.34401	-9.87757	-0.0024111	-0.2996395	10	0.001069	0.0099881	1466.98
	11	20	7928.241	9.59912	-1.648364	1	9.73962	-9.74382	-0.0023884	-0.2997569	10	0.0010238	0.0099711	1467.522
	12	21	6307.871	9.89231	-1.703615	1	10.03793	-9.77141	-0.0023766	-0.2997571	10	0.0009953	0.0099903	1466.98
	13	23	5034.722	10.25347	-1.772194	1	10.40549	-9.80603	-0.0023594	-0.2997349	10	0.000936	0.009766	1467.522
	14	24	3993.056	10.63948	-1.867622	1	10.80216	-9.9561	-0.0023403	-0.2997354	10	0.000936	0.0101272	1466.799
	15	26	3144.055	10.8272	-1.986742	1	11.00797	-10.39784	-0.0023502	-0.2997874	10	0.0009126	0.0100553	1467.431
	16	27	2519.531	11.21553	-2.122911	1	11.41467	-10.71832	-0.0023348	-0.2997894	10	0.000876	0.0100053	1466.799
	17	28	2000.762	11.64547	-2.260595	1	11.86285	-10.98551	-0.0023224	-0.2997878	10	0.0008431	0.0100056	1467.431
	18	30	1580.669	12.19594	-2.437705	1	12.43718	-11.30323	-0.0022993	-0.2997878	10	0.000804	0.0100011	1467.341
	19	31	1253.634	12.66264	-2.601912	1	12.92719	-11.61149	-0.00229	-0.2997863	10	0.0007732	0.0099966	1467.07
	20	33	1000.702	13.24764	-2.767349	1	13.53359	-11.79906	-0.0022715	-0.2997337	10	0.0007382	0.0099919	1467.431
	21	34	790.0281	12.10927	-2.775456	1	12.42327	-12.90927	-0.0024821	-0.2997343	10	0.0008041	0.0099896	1466.799
	22	35	628.811	12.83729	-2.879398	1	13.15625	-12.64217	-0.0024546	-0.2997855	10	0.0007613	0.0100161	1467.431
	23	37	502.2321	13.55184	-2.932689	1	13.86553	-12.21081	-0.0024305	-0.2997785	10	0.0006885	0.0095312	1467.483
	24	38	400.1524	14.23326	-2.926175	1	14.53094	-11.6174	-0.0024152	-0.2997816	10	0.0007074	0.0102663	1467.341
	25	40	315.5048	14.92927	-2.865063	1	15.2017	-10.8635	-0.0023986	-0.2997802	10	0.0006649	0.0100997	1467.522
	26	41	252.0161	15.57522	-2.750489	1	15.81622	-10.01483	-0.002382	-0.2997783	10	0.0006353	0.0100434	1467.161
	27	42	200.3205	16.27427	-2.5968	1	16.48015	-9.06596	-0.002358	-0.2997767	10	0.0006079	0.0100156	1467.431
	28	44	158.0056	16.85391	-2.388361	1	17.0223	-8.065657	-0.0023431	-0.2997771	10	0.000585	0.0099563	1467.612
	29	45	125.558	17.39165	-2.169238	1	17.52641	-7.109714	-0.0023259	-0.2997791	10	0.000567	0.0099357	1467.703
	30	47	99.734	17.85279	-1.93097	1	17.95691	-6.173153	-0.0023107	-0.2997779	10	0.0005459	0.0098011	1467.612
	31	48	79.44915	18.35514	-1.71722	1	18.4353	-5.344765	-0.002289	-0.2997646	10	0.0005553	0.0102362	1467.703
	32	50	62.91946	18.28941	-1.430535	1	18.34527	-4.472374	-0.0023118	-0.299763	10	0.0005453	0.0100024	1467.703
	33	51	49.86702	18.60799	-1.231964	1	18.64873	-3.787806	-0.002297	-0.299767	10	0.0005364	0.010002	1467.07
	34	53	38.42213	18.91064	-1.034737	1	18.93893	-3.13194	-0.0022838	-0.2997658	10	0.000528	0.0100004	1467.703
	35	54	31.25	19.26719	-0.8954678	1	19.28799	-2.660981	-0.0022591	-0.2997651	10	0.0005185	0.0099999	1467.161
	36	56	24.93351	19.12909	-0.7478102	1	19.14371	-2.238714	-0.0022753	-0.2997655	10	0.0005224	0.0099997	1467.703
	37	57	20.03205	19.41395	-0.639967	1	19.4245	-1.888031	-0.0022544	-0.2997633	10	0.0005148	0.0100005	1467.251
	38	59	15.625	19.6058	-0.523908	1	19.6128	-1.530699	-0.0022412	-0.2997649	10	0.0005098	0.0099995	1467.161
	39	60	12.46675	19.98394	-0.4656219	1	19.98937	-1.334739	-0.0022122	-0.2997644	10	0.0005003	0.0100006	1467.703
	40	62	9.9734	19.70835	-0.3942397	1	19.7123	-1.145974	-0.0022357	-0.2997639	10	0.0005073	0.0099998	1467.251
	41	64	7.971939	20.16537	-0.3487895	1	20.16838	-0.990916	-0.0021999	-0.2997647	10	0.0004959	0.0100008	1467.161
	42	66	6.351626	20.22087	-0.3077064	1	20.22321	-0.871818	-0.0021964	-0.2997655	10	0.0004945	0.0100001	1467.161
	43	68	5.013369	20.74274	-0.2316309	1	20.74403	-0.6397863	-0.0021552	-0.2997648	10	0.0004821	0.0100002	1467.161
	44	70	3.985969	20.86505	-0.244179	1	20.86648	-0.670489	-0.0021481	-0.2997649	10	0.0004792	0.0099997	1467.161
	45	73	3.175813	21.08436	-0.0657445	1	21.08446	-0.178657	-0.0021275	-0.2997655	10	0.0004743	0.0100003	1467.161
	46	76	2.516103	21.76843	-0.162271	1	21.76904	-0.4270989	-0.0020828	-0.2997628	10	0.000448	0.0097743	1467.703
	47	80	1.99553	22.00289	-0.1300446	1	22.00327	-0.3386338	-0.0020662	-0.2997639	10	0.0004604	0.0101455	1467.251
	48	84	1.587906	22.33972	-0.0608462	1	22.3398	-0.1560548	-0.0020412	-0.299764	10	0.0004496	0.010055	1467.703
	49	88	1.258052	22.97958	-0.0879717	1	22.97975	-0.2193417	-0.0019988	-0.2997633	10	0.0004358	0.0100211	1467.251
	50	94	0.997765	23.32802	-0.2194559	1	23.32905	-0.5389882	-0.0019646	-0.2997632	10	0.0004288	0.0100077	1467.161
