EXPLAIN
TAG	EISPOT
TITLE	LABEL	Potentiostatic EIS	Test Identifier
DATE	LABEL	21.8.2024	Date
TIME	LABEL	14:58:14	Time
NOTES	NOTES	1	Notes...
	
PSTAT	PSTAT	IFC1010-36105	Potentiostat
VDC	POTEN	5.00000E-001	F	A Potential (V)
FREQINIT	QUANT	1.00000E+005	Initial Freq. (Hz)
FREQFINAL	QUANT	1.00000E+000	Final Freq. (Hz)
PTSPERDEC	QUANT	1.00000E+001	Points/decade
VAC	QUANT	1.00000E+001	AC Voltage (mV rms)
AREA	QUANT	1.00000E+000	Sample Area (cm^2)
SPEED	SELECTOR	1	Optimize for:
DRIFTCOR	SELECTOR	0	Drift Correction
THD	SELECTOR	0	THD
ZGUESS	QUANT	1.00000E+002	Estimated Z (ohms)
EOC	QUANT	-0.1279954	Open Circuit (V)
SEQUENCER	TOGGLE	TRUE	Run as Sequence
PSTATMODEL	IQUANT	64	Pstat Model
PSTATSECTION	LABEL	IFC1010-36105	Pstat Section
PSTATSERIALNO	LABEL	36105	Pstat Serial Number
CTRLMODE	IQUANT	1	Control Mode
ELECTROMETER	IQUANT	0	RE=0 or CS=1
IESTAB	IQUANT	0	I/E Stability
CASPEED	IQUANT	3	Control Amp Speed
CONVENTION	IQUANT	1	Current Convention
ICHRANGE	IQUANT	2	Ich Range
ICHRANGEMODE	TOGGLE	F	Ich Auto Range
ICHOFFSETENABLE	TOGGLE	T	Ich Offset Enable
ICHOFFSET	QUANT	0	Ich Offset (V)
ICHFILTER	IQUANT	4	Ich Filter
VCHRANGE	IQUANT	2	Vch Range
VCHRANGEMODE	TOGGLE	F	Vch Auto Range
VCHOFFSETENABLE	TOGGLE	T	Vch Offset Enable
VCHOFFSET	QUANT	0	Vch Offset (V)
VCHFILTER	IQUANT	4	Vch Filter
IERANGELOWERLIMIT	IQUANT	4	I/E Range Lower Limit
IERANGEMODE	TOGGLE	F	I/E AutoRange
IERANGE	IQUANT	11	I/E Range
ACHSELECT	IQUANT	0	Ach Select
ACHRANGE	IQUANT	2	Ach Range
ACHOFFSETENABLE	TOGGLE	F	Ach Offset Enable
ACHOFFSET	QUANT	0	Ach Offset (V)
ACHFILTER	IQUANT	1	Ach Filter
SENSECABLEID	IQUANT	13	Sense Cable ID
PWRCABLEID	IQUANT	13	Power Cable ID
DCCALDATE	LABEL	10/17/2023	DC Calibration Date
ACCALDATE	LABEL	6/2/2023	AC Calibration Date
FRAMEWORKVERSION	LABEL	7.10.3	Framework Version
INSTRUMENTVERSION	LABEL	4.91	Instrument Version
COMMVERSION	LABEL	3.10	Communications Version
CPUPLDVERSION	LABEL	2.22	CPU PLD Version
CTRLPLDVERSION	LABEL	0.00	CTRL PLD Version
PSTATPLDVERSION	LABEL	0.00	PSTAT PLD Version
ZCURVE	TABLE
	Pt	Time	Freq	Zreal	Zimag	Zsig	Zmod	Zphz	Idc	Vdc	IERange	Imod	Vmod	Temp
	#	s	Hz	ohm	ohm	V	ohm	°	A	V	#	A	V	°C
	0	4	100019.5	12.54589	-0.2455311	1	12.54829	-1.121172	1.44555E-005	0.5000908	10	0.0007963	0.0100091	1490.064
	1	6	79511.72	12.56451	-0.2582527	1	12.56717	-1.1775	1.470814E-005	0.5001128	10	0.0008885	0.0111787	1489.607
	2	7	63105.47	12.5551	-0.3574959	1	12.56019	-1.631008	1.363749E-005	0.5001118	10	0.0008613	0.0108265	1490.247
	3	9	50214.84	12.57359	-0.4343851	1	12.58109	-1.978635	1.306392E-005	0.5001141	10	0.0008384	0.010553	1489.607
	4	11	39902.34	12.59544	-0.5287552	1	12.60654	-2.403859	1.248477E-005	0.5001149	10	0.000822	0.0103658	1489.698
	5	12	31699.22	12.61903	-0.6479893	1	12.63566	-2.939565	1.005788E-005	0.5000873	10	0.0008099	0.0102359	1490.247
	6	14	25136.72	12.6485	-0.7966998	1	12.67357	-3.604168	9.704043E-006	0.5000885	10	0.0007998	0.0101374	1489.607
	7	16	19980.47	12.68531	-0.975774	1	12.72279	-4.398619	1.104991E-005	0.5001115	10	0.0007916	0.0100721	1490.247
	8	17	15878.91	12.72786	-1.200363	1	12.78434	-5.387622	1.091886E-005	0.5001129	10	0.0007872	0.0100644	1489.607
	9	19	12597.66	12.77848	-1.479121	1	12.8638	-6.602659	1.063805E-005	0.500112	10	0.0007801	0.010035	1490.247
	10	20	10019.53	12.83864	-1.819138	1	12.96688	-8.064693	1.040975E-005	0.5001124	10	0.0007729	0.010022	1489.607
	11	22	7928.241	12.91146	-2.252498	1	13.10647	-9.89607	7.806292E-006	0.5000216	10	0.000763	0.0099998	1490.156
	12	23	6307.871	12.99032	-2.78107	1	13.28469	-12.08392	7.643229E-006	0.5000214	10	0.0007532	0.0100061	1490.247
	13	25	5034.722	13.07884	-3.425916	1	13.5201	-14.67846	8.355153E-006	0.5000743	10	0.0007203	0.0097187	1489.516
	14	26	3993.056	13.18188	-4.250637	1	13.85027	-17.87246	8.20312E-006	0.5000735	10	0.0007354	0.0101736	1490.156
	15	28	3144.055	13.29831	-5.319051	1	14.32262	-21.8004	8.213794E-006	0.5001328	10	0.0007048	0.0100878	1489.516
	16	29	2519.531	13.42404	-6.563368	1	14.94265	-26.05523	7.841465E-006	0.5001335	10	0.0006705	0.0100145	1490.156
	17	31	2000.762	13.57453	-8.178696	1	15.84799	-31.06909	7.728451E-006	0.5001321	10	0.0006304	0.0099876	1489.607
	18	32	1580.669	13.76034	-10.25921	1	17.16387	-36.70687	7.616156E-006	0.5001316	10	0.0005835	0.0100141	1490.156
	19	34	1253.634	13.99225	-12.83035	1	18.98423	-42.51963	4.573733E-006	0.5001315	9	0.0005324	0.0101058	1489.516
	20	35	1000.702	14.26241	-15.95849	1	21.40303	-48.21222	4.474653E-006	0.5000741	9	0.000466	0.0099736	1490.064
	21	37	790.0281	14.62	-20.05679	1	24.81973	-53.91056	4.404086E-006	0.5000726	9	0.0004016	0.0099683	1490.064
	22	38	628.811	15.06754	-25.02135	1	29.20786	-58.94418	4.38502E-006	0.5001324	9	0.0003415	0.0099739	1489.881
	23	39	502.2321	15.63176	-31.10756	1	34.81425	-63.32017	4.217964E-006	0.5001289	9	0.0002754	0.0096102	1490.156
	24	41	400.1524	16.35893	-38.77924	1	42.08853	-67.12766	4.168791E-006	0.5001307	9	0.0002416	0.0101824	1489.607
	25	43	315.5048	17.34116	-48.79033	1	51.78042	-70.43366	4.117135E-006	0.5001305	9	0.000195	0.0101062	1490.247
	26	44	252.0161	18.53338	-60.59386	1	63.36483	-72.9931	4.075432E-006	0.5001327	9	0.0001578	0.0100012	1489.607
	27	45	200.3205	20.09229	-75.55665	1	78.18253	-75.10835	3.975492E-006	0.5001323	9	0.0001278	0.0099932	1490.247
	28	47	158.0056	22.17235	-94.81602	1	97.374	-76.83813	3.924344E-006	0.5001307	9	0.0001022	0.0099539	1490.156
	29	48	125.558	24.7603	-118.0898	1	120.6577	-78.15813	3.87539E-006	0.5001304	9	8.223828E-005	0.009924	1490.156
	30	49	99.734	28.03261	-147.0996	1	149.7469	-79.21058	3.818788E-006	0.5001301	9	6.526458E-005	0.009774	1490.247
	31	51	79.44915	31.96617	-181.8165	1	184.6051	-80.02842	3.729581E-006	0.500129	9	5.555857E-005	0.0102569	1489.79
	32	52	62.91946	36.42035	-224.0728	1	227.0134	-80.76799	3.792035E-006	0.5001314	8	4.407722E-005	0.0100064	1490.339
	33	54	49.86702	43.84817	-283.0417	1	286.418	-81.19387	3.763704E-006	0.5001327	8	3.491117E-005	0.0099994	1489.698
	34	55	38.42213	53.27964	-360.3721	1	364.2894	-81.58996	3.71566E-006	0.5001324	8	2.744796E-005	0.0099991	1490.156
	35	57	31.25	62.9898	-436.007	1	440.5336	-81.77937	3.681769E-006	0.500132	8	2.26973E-005	0.009999	1489.698
	36	58	24.93351	79.33486	-547.1895	1	552.9108	-81.7504	3.651957E-006	0.5001321	8	1.808212E-005	0.0099979	1490.247
	37	60	20.03205	97.7891	-670.8603	1	677.95	-81.7066	3.616939E-006	0.500134	8	1.47508E-005	0.0100003	1489.698
	38	61	15.625	128.636	-852.0622	1	861.7176	-81.41487	3.573421E-006	0.5001316	8	1.16036E-005	0.009999	1490.238
	39	63	12.46675	167.2768	-1056.224	1	1069.388	-81.00067	3.521546E-006	0.5001295	8	9.351239E-006	0.0100001	1489.79
	40	65	9.9734	219.5268	-1303.504	1	1321.86	-80.44036	3.483539E-006	0.5001302	8	7.565264E-006	0.0100002	1489.698
	41	67	7.971939	293.9427	-1609.889	1	1636.504	-79.65259	3.432944E-006	0.5001307	8	6.110132E-006	0.0099993	1489.698
	42	69	6.351626	398.0817	-1988.697	1	2028.148	-78.68059	3.377225E-006	0.5001298	8	4.930715E-006	0.0100002	1489.79
	43	71	5.013369	550.571	-2469.393	1	2530.026	-77.43102	3.325965E-006	0.5001314	8	3.952502E-006	0.0099999	1489.79
	44	73	3.985969	762.3696	-3035.375	1	3129.65	-75.90114	3.273363E-006	0.5001294	8	3.195195E-006	0.0099998	1489.79
	45	76	3.175813	1058.89	-3714.092	1	3862.088	-74.08711	3.226702E-006	0.5001326	7	2.589188E-006	0.0099997	1489.698
	46	79	2.516103	1480.62	-4533.199	1	4768.871	-71.91208	3.161253E-006	0.5001314	7	2.002723E-006	0.0096861	1490.247
	47	82	1.99553	2054.871	-5474.063	1	5847.039	-69.42471	3.082247E-006	0.500131	7	1.727606E-006	0.0101886	1490.247
	48	86	1.587906	2819.074	-6547.022	1	7128.161	-66.70383	2.996664E-006	0.5001332	7	1.406364E-006	0.010078	1490.247
	49	93	1.258052	3852.941	-7791.01	1	8691.662	-63.68591	2.881034E-006	0.5001311	7	1.150662E-006	0.0100337	1490.247
	50	101	0.997765	5193.235	-9092.495	1	10471.06	-60.26688	2.764078E-006	0.5001307	7	9.544923E-007	0.0100146	1489.79
