EXPLAIN
TAG	EISPOT
TITLE	LABEL	Potentiostatic EIS	Test Identifier
DATE	LABEL	17.7.2024	Date
TIME	LABEL	10:20:11	Time
NOTES	NOTES	1	Notes...
	
PSTAT	PSTAT	IFC1010-34090	Potentiostat
VDC	POTEN	0.00000E+000	F	A Potential (V)
FREQINIT	QUANT	1.00000E+005	Initial Freq. (Hz)
FREQFINAL	QUANT	1.00000E+000	Final Freq. (Hz)
PTSPERDEC	QUANT	1.00000E+001	Points/decade
VAC	QUANT	1.00000E+001	AC Voltage (mV rms)
AREA	QUANT	1.00000E+000	Sample Area (cm^2)
SPEED	SELECTOR	1	Optimize for:
DRIFTCOR	SELECTOR	0	Drift Correction
THD	SELECTOR	0	THD
ZGUESS	QUANT	1.00000E+002	Estimated Z (ohms)
EOC	QUANT	0.7205974	Open Circuit (V)
SEQUENCER	TOGGLE	TRUE	Run as Sequence
PSTATMODEL	IQUANT	64	Pstat Model
PSTATSECTION	LABEL	IFC1010-34090	Pstat Section
PSTATSERIALNO	LABEL	34090	Pstat Serial Number
CTRLMODE	IQUANT	1	Control Mode
ELECTROMETER	IQUANT	0	RE=0 or CS=1
IESTAB	IQUANT	0	I/E Stability
CASPEED	IQUANT	3	Control Amp Speed
CONVENTION	IQUANT	1	Current Convention
ICHRANGE	IQUANT	2	Ich Range
ICHRANGEMODE	TOGGLE	F	Ich Auto Range
ICHOFFSETENABLE	TOGGLE	T	Ich Offset Enable
ICHOFFSET	QUANT	0	Ich Offset (V)
ICHFILTER	IQUANT	4	Ich Filter
VCHRANGE	IQUANT	2	Vch Range
VCHRANGEMODE	TOGGLE	F	Vch Auto Range
VCHOFFSETENABLE	TOGGLE	T	Vch Offset Enable
VCHOFFSET	QUANT	0	Vch Offset (V)
VCHFILTER	IQUANT	4	Vch Filter
IERANGELOWERLIMIT	IQUANT	4	I/E Range Lower Limit
IERANGEMODE	TOGGLE	F	I/E AutoRange
IERANGE	IQUANT	11	I/E Range
ACHSELECT	IQUANT	0	Ach Select
ACHRANGE	IQUANT	2	Ach Range
ACHOFFSETENABLE	TOGGLE	F	Ach Offset Enable
ACHOFFSET	QUANT	0	Ach Offset (V)
ACHFILTER	IQUANT	1	Ach Filter
SENSECABLEID	IQUANT	13	Sense Cable ID
PWRCABLEID	IQUANT	13	Power Cable ID
DCCALDATE	LABEL	1/30/2024	DC Calibration Date
ACCALDATE	LABEL	1/8/2024	AC Calibration Date
FRAMEWORKVERSION	LABEL	7.10.3	Framework Version
INSTRUMENTVERSION	LABEL	4.91	Instrument Version
COMMVERSION	LABEL	3.10	Communications Version
CPUPLDVERSION	LABEL	2.22	CPU PLD Version
CTRLPLDVERSION	LABEL	0.00	CTRL PLD Version
PSTATPLDVERSION	LABEL	0.00	PSTAT PLD Version
ZCURVE	TABLE
	Pt	Time	Freq	Zreal	Zimag	Zsig	Zmod	Zphz	Idc	Vdc	IERange	Imod	Vmod	Temp
	#	s	Hz	ohm	ohm	V	ohm	°	A	V	#	A	V	°C
	0	3	100019.5	6.894127	-1.085344	1	6.979037	-8.946662	-7.419711E-006	0.0002628	10	0.0014333	0.0099865	1466.799
	1	5	79511.72	6.858792	-1.046126	1	6.938113	-8.67211	-5.086749E-006	0.0003403	10	0.001698	0.0117669	1467.431
	2	6	63105.47	6.886246	-1.041653	1	6.964584	-8.601675	-6.430508E-006	0.0003467	10	0.0016372	0.0113931	1467.07
	3	8	50214.84	6.93082	-1.0778	1	7.014123	-8.839168	-5.561237E-006	0.0002533	10	0.0015675	0.0109889	1467.431
	4	9	39902.34	7.003962	-1.150331	1	7.097798	-9.326991	-6.172393E-006	0.0002843	10	0.0015093	0.0107092	1467.07
	5	11	31699.22	7.108768	-1.254883	1	7.218678	-10.01106	-7.510857E-006	0.0002627	10	0.00145	0.0104645	1467.431
	6	12	25136.72	7.247304	-1.383514	1	7.37818	-10.80776	-5.112406E-006	0.000336	10	0.0013887	0.0102449	1467.522
	7	14	19980.47	7.416817	-1.530384	1	7.573061	-11.65877	-5.92477E-006	0.0003521	10	0.0013422	0.0101636	1467.522
	8	15	15878.91	7.622106	-1.692199	1	7.807691	-12.51733	-6.032672E-006	0.000221	10	0.001285	0.0100323	1466.889
	9	17	12597.66	7.866068	-1.860074	1	8.083	-13.30424	-7.337567E-006	0.000307	10	0.0012389	0.0100137	1467.522
	10	18	10019.53	8.136774	-2.024078	1	8.384748	-13.96919	-6.925559E-006	0.0002814	10	0.0011929	0.0100019	1466.889
	11	20	7928.241	8.435402	-2.188087	1	8.71457	-14.54165	-3.898647E-006	0.0002052	10	0.0011453	0.0099807	1467.522
	12	21	6307.871	8.74033	-2.349801	1	9.050687	-15.04792	-4.175487E-006	0.0002036	10	0.0011037	0.0099887	1466.889
	13	22	5034.722	9.043055	-2.514645	1	9.386175	-15.53991	-5.436364E-006	0.0002222	10	0.0010331	0.0097227	1467.522
	14	24	3993.056	9.361915	-2.705926	1	9.74513	-16.12117	-5.455625E-006	0.000223	10	0.0010387	0.0101381	1466.889
	15	25	3144.055	9.69638	-2.937907	1	10.13169	-16.85629	-5.612209E-006	0.0001716	10	0.0009886	0.0100252	1467.431
	16	27	2519.531	10.01532	-3.196044	1	10.51291	-17.69868	-5.680533E-006	0.0001687	10	0.0009537	0.010032	1467.341
	17	28	2000.762	10.36476	-3.518415	1	10.94566	-18.75027	-5.560181E-006	0.000169	10	0.000913	0.0099968	1467.341
	18	30	1580.669	10.74544	-3.919966	1	11.43812	-20.0421	-5.54659E-006	0.0001694	10	0.0008732	0.0099894	1467.431
	19	31	1253.634	11.15246	-4.395074	1	11.98724	-21.50891	-5.479609E-006	0.0001698	10	0.0008325	0.0099812	1466.799
	20	33	1000.702	11.58849	-4.949303	1	12.60114	-23.12673	-5.183882E-006	0.0002236	10	0.000794	0.0100067	1467.341
	21	34	790.0281	12.09581	-5.637462	1	13.34502	-24.9887	-5.173161E-006	0.0002241	10	0.000747	0.0099688	1466.799
	22	35	628.811	12.64477	-6.43118	1	14.18627	-26.95807	-5.450113E-006	0.0001685	10	0.0007045	0.0099946	1467.431
	23	37	502.2321	13.25531	-7.351421	1	15.1574	-29.01283	-5.351107E-006	0.0001776	10	0.0006323	0.0095689	1467.431
	24	38	400.1524	13.95404	-8.449255	1	16.31273	-31.19516	-5.922381E-006	0.0001775	10	0.0006286	0.0102423	1467.07
	25	40	315.5048	14.78354	-9.81928	1	17.74743	-33.59226	-6.727609E-006	0.0001746	9	0.0005714	0.0101321	1467.703
	26	41	252.0161	15.68986	-11.32511	1	19.35019	-35.82215	-6.661671E-006	0.0001797	9	0.000519	0.0100378	1467.07
	27	42	200.3205	16.74781	-13.12967	1	21.28092	-38.09516	-6.662887E-006	0.0001801	9	0.0004702	0.0100035	1467.07
	28	44	158.0056	18.00336	-15.32253	1	23.64108	-40.40087	-6.666586E-006	0.0001794	9	0.0004218	0.0099689	1467.522
	29	45	125.558	19.39779	-17.82293	1	26.34257	-42.57718	-6.684502E-006	0.000177	9	0.0003765	0.0099155	1466.98
	30	47	99.734	20.97851	-20.76416	1	29.51692	-44.70579	-6.63356E-006	0.0001796	9	0.0003313	0.0097779	1467.522
	31	48	79.44915	22.73979	-24.1973	1	33.20554	-46.7786	-8.125317E-006	0.0001902	9	0.0003088	0.0102544	1467.07
	32	49	62.91946	24.8047	-28.31982	1	37.64685	-48.78561	-7.684912E-006	0.0001928	9	0.0002656	0.0099988	1467.522
	33	51	49.86702	27.04255	-33.22989	1	42.84303	-50.86123	-7.401629E-006	0.0001915	9	0.0002335	0.0100022	1467.431
	34	52	38.42213	29.80477	-39.71215	1	49.65259	-53.11103	-7.120144E-006	0.0001926	9	0.0002014	0.0100007	1467.522
	35	54	31.25	32.17566	-45.93968	1	56.08678	-54.99301	-6.985906E-006	0.0001915	9	0.0001783	0.0099999	1467.431
	36	55	24.93351	34.80549	-54.10038	1	64.32941	-57.24479	-6.907056E-006	0.0001921	9	0.0001555	0.0100004	1467.522
	37	57	20.03205	37.4264	-63.67551	1	73.86005	-59.55437	-6.772608E-006	0.0001947	9	0.0001354	0.0099996	1466.98
	38	58	15.625	40.39371	-77.20585	1	87.13435	-62.38166	-6.740037E-006	0.0001928	9	0.0001148	0.0099992	1467.522
	39	60	12.46675	43.05195	-92.65705	1	102.1704	-65.07865	-6.701391E-006	0.0001919	9	0.0000979	0.0100001	1466.98
	40	62	9.9734	45.68223	-111.7539	1	120.7303	-67.76646	-6.673682E-006	0.0001905	9	8.282843E-005	0.0099999	1466.98
	41	64	7.971939	48.33941	-135.7475	1	144.0975	-70.39929	-6.63352E-006	0.0001939	9	6.93995E-005	0.0100003	1466.98
	42	66	6.351626	51.18653	-166.3458	1	174.043	-72.89626	-6.698633E-006	0.00019	9	5.745924E-005	0.0100004	1467.251
	43	68	5.013369	54.31298	-206.5505	1	213.572	-75.26744	-6.695347E-006	0.000194	8	4.682067E-005	0.0099996	1466.98
	44	70	3.985969	57.68332	-255.7433	1	262.1679	-77.28954	-6.684098E-006	0.0001907	8	3.81415E-005	0.0099995	1466.98
	45	73	3.175813	61.53579	-317.1317	1	323.0467	-79.01887	-6.675308E-006	0.0001937	8	3.095717E-005	0.0100006	1466.98
	46	76	2.516103	66.33013	-396.7003	1	402.2074	-80.50769	-6.661136E-006	0.0001973	8	2.42452E-005	0.0097743	1467.07
	47	79	1.99553	71.98907	-496.2035	1	501.3984	-81.74514	-6.647335E-006	0.0001972	8	2.020172E-005	0.0101453	1467.514
	48	83	1.587906	78.9573	-619.7574	1	624.7667	-82.73961	-6.631084E-006	0.000196	8	1.607742E-005	0.0100553	1467.07
	49	88	1.258052	88.00328	-778.3967	1	783.3557	-83.5497	-6.61295E-006	0.0001972	8	1.27837E-005	0.010021	1467.07
	50	94	0.997765	99.8752	-977.661	1	982.749	-84.16705	-6.595497E-006	0.0001959	8	1.017934E-005	0.0100081	1467.522
