EXPLAIN
TAG	EISPOT
TITLE	LABEL	Potentiostatic EIS	Test Identifier
DATE	LABEL	2/13/2024	Date
TIME	LABEL	12:16:30	Time
NOTES	NOTES	1	Notes...
	
PSTAT	PSTAT	IFC1010-36068	Potentiostat
VDC	POTEN	-6.00000E-001	F	A Potential (V)
FREQINIT	QUANT	1.00000E+005	Initial Freq. (Hz)
FREQFINAL	QUANT	1.00000E+000	Final Freq. (Hz)
PTSPERDEC	QUANT	1.00000E+001	Points/decade
VAC	QUANT	1.00000E+001	AC Voltage (mV rms)
AREA	QUANT	1.00000E+000	Sample Area (cm^2)
SPEED	SELECTOR	1	Optimize for:
DRIFTCOR	SELECTOR	0	Drift Correction
THD	SELECTOR	0	THD
ZGUESS	QUANT	1.00000E+002	Estimated Z (ohms)
EOC	QUANT	0.3246219	Open Circuit (V)
SEQUENCER	TOGGLE	TRUE	Run as Sequence
PSTATMODEL	IQUANT	64	Pstat Model
PSTATSECTION	LABEL	IFC1010-36068	Pstat Section
PSTATSERIALNO	LABEL	36068	Pstat Serial Number
CTRLMODE	IQUANT	1	Control Mode
ELECTROMETER	IQUANT	0	RE=0 or CS=1
IESTAB	IQUANT	0	I/E Stability
CASPEED	IQUANT	3	Control Amp Speed
CONVENTION	IQUANT	1	Current Convention
ICHRANGE	IQUANT	2	Ich Range
ICHRANGEMODE	TOGGLE	F	Ich Auto Range
ICHOFFSETENABLE	TOGGLE	T	Ich Offset Enable
ICHOFFSET	QUANT	0	Ich Offset (V)
ICHFILTER	IQUANT	4	Ich Filter
VCHRANGE	IQUANT	2	Vch Range
VCHRANGEMODE	TOGGLE	F	Vch Auto Range
VCHOFFSETENABLE	TOGGLE	T	Vch Offset Enable
VCHOFFSET	QUANT	0	Vch Offset (V)
VCHFILTER	IQUANT	4	Vch Filter
IERANGELOWERLIMIT	IQUANT	4	I/E Range Lower Limit
IERANGEMODE	TOGGLE	F	I/E AutoRange
IERANGE	IQUANT	11	I/E Range
ACHSELECT	IQUANT	0	Ach Select
ACHRANGE	IQUANT	2	Ach Range
ACHOFFSETENABLE	TOGGLE	F	Ach Offset Enable
ACHOFFSET	QUANT	0	Ach Offset (V)
ACHFILTER	IQUANT	1	Ach Filter
SENSECABLEID	IQUANT	13	Sense Cable ID
PWRCABLEID	IQUANT	13	Power Cable ID
DCCALDATE	LABEL	8/11/2023	DC Calibration Date
ACCALDATE	LABEL	6/2/2023	AC Calibration Date
FRAMEWORKVERSION	LABEL	7.10.3	Framework Version
INSTRUMENTVERSION	LABEL	4.91	Instrument Version
COMMVERSION	LABEL	3.10	Communications Version
CPUPLDVERSION	LABEL	2.22	CPU PLD Version
CTRLPLDVERSION	LABEL	0.00	CTRL PLD Version
PSTATPLDVERSION	LABEL	0.00	PSTAT PLD Version
ZCURVE	TABLE
	Pt	Time	Freq	Zreal	Zimag	Zsig	Zmod	Zphz	Idc	Vdc	IERange	Imod	Vmod	Temp
	#	s	Hz	ohm	ohm	V	ohm	°	A	V	#	A	V	°C
	0	3	100019.5	13.19306	-0.56724	1	13.20525	-2.461935	-0.0037116	-0.599688	10	0.0007277	0.0095845	1467.974
	1	5	79511.72	13.50204	-0.5249552	1	13.51224	-2.226521	-0.0036194	-0.5996888	10	0.0008427	0.0113655	1467.793
	2	6	63105.47	13.77773	-0.5380415	1	13.78823	-2.236352	-0.0035572	-0.5996895	10	0.0007945	0.0109412	1468.426
	3	8	50214.84	14.09127	-0.5546563	1	14.10218	-2.254095	-0.0034716	-0.5996904	10	0.0007526	0.0106043	1467.703
	4	9	39902.34	14.46971	-0.5993248	1	14.48212	-2.371793	-0.0033861	-0.599693	10	0.0007182	0.010395	1468.426
	5	11	31699.22	14.84085	-0.6596702	1	14.85551	-2.5451	-0.0033099	-0.5997848	10	0.00069	0.0102474	1467.703
	6	12	25136.72	15.16568	-0.7216139	1	15.18284	-2.724195	-0.0032628	-0.5996924	10	0.0006684	0.0101456	1468.426
	7	14	19980.47	15.49594	-0.8255993	1	15.51792	-3.049745	-0.0032063	-0.5996922	10	0.0006493	0.0100747	1467.883
	8	15	15878.91	15.85211	-0.9467231	1	15.88036	-3.417771	-0.0031561	-0.5997871	10	0.0006336	0.0100615	1468.516
	9	17	12597.66	16.23301	-1.106833	1	16.2707	-3.900625	-0.0030968	-0.5997869	10	0.0006163	0.0100269	1467.974
	10	18	10019.53	16.68311	-1.296841	1	16.73344	-4.44488	-0.0030427	-0.5997882	10	0.0005983	0.0100112	1468.064
	11	19	7928.241	17.03952	-1.531466	1	17.1082	-5.13579	-0.0029977	-0.599694	10	0.0005855	0.0100173	1468.516
	12	21	6307.871	17.40843	-1.761488	1	17.49732	-5.777862	-0.002974	-0.5996964	10	0.0005709	0.0099884	1467.883
	13	22	5034.722	17.88849	-2.072292	1	18.00813	-6.607972	-0.0029291	-0.5997282	10	0.0005364	0.0097022	1468.516
	14	24	3993.056	13.63157	-2.192873	1	13.80682	-9.138721	-0.0035458	-0.5997275	10	0.0007368	0.0102011	1467.612
	15	25	3144.055	14.23644	-2.614755	1	14.47457	-10.40731	-0.0034779	-0.599783	10	0.0006953	0.0100813	1468.245
	16	27	2519.531	14.88474	-3.061948	1	15.19641	-11.62419	-0.0034134	-0.5997846	10	0.0006579	0.0100077	1467.703
	17	28	2000.762	15.67155	-3.54724	1	16.06799	-12.75393	-0.0033577	-0.5997838	10	0.0006227	0.0100127	1468.426
	18	30	1580.669	16.58245	-4.07831	1	17.0766	-13.81717	-0.0033019	-0.5997835	10	0.0005842	0.0099798	1467.793
	19	31	1253.634	17.58249	-4.568217	1	18.16625	-14.56435	-0.0032586	-0.5997825	10	0.0005508	0.0100086	1468.335
	20	33	1000.702	18.77473	-5.01512	1	19.43301	-14.95571	-0.0032081	-0.5997266	10	0.0005147	0.0100046	1468.335
	21	34	790.0281	19.95842	-5.315699	1	20.65418	-14.91387	-0.0031855	-0.5997279	10	0.0004841	0.009999	1467.793
	22	35	628.811	21.32781	-5.497389	1	22.02491	-14.45376	-0.0031488	-0.5997857	10	0.0004537	0.0099936	1468.335
	23	37	502.2321	22.601	-5.481919	1	23.25633	-13.63391	-0.0031272	-0.5997841	10	0.0004098	0.0095419	1468.426
	24	38	400.1524	24.04524	-5.333887	1	24.62973	-12.50723	-0.0030824	-0.5997859	10	0.000416	0.0102489	1468.516
	25	39	315.5048	25.37587	-5.002461	1	25.86425	-11.15198	-0.0030468	-0.5997852	10	0.0003909	0.0101094	1468.516
	26	41	252.0161	26.61601	-4.598831	1	27.01039	-9.80303	-0.0030071	-0.5997797	10	0.0003721	0.0100491	1467.974
	27	42	200.3205	27.7979	-4.131355	1	28.10322	-8.453485	-0.0029588	-0.5997812	10	0.0003554	0.0099853	1468.155
	28	43	158.0056	28.50765	-3.542119	1	28.72687	-7.082787	-0.0029476	-0.5997809	10	0.0003462	0.0099433	1468.426
	29	45	125.558	29.51541	-3.090611	1	29.67678	-5.977759	-0.0028967	-0.5997844	10	0.0003335	0.0098979	1467.883
	30	46	99.734	30.21497	-2.636468	1	30.32977	-4.986828	-0.0028641	-0.5997822	10	0.0003221	0.0097689	1468.516
	31	48	79.44915	31.07245	-2.246102	1	31.15353	-4.134489	-0.0028171	-0.5997844	10	0.0003294	0.0102611	1467.974
	32	49	62.91946	31.71762	-1.814192	1	31.76946	-3.273651	-0.0027781	-0.5997795	10	0.0003148	0.0100009	1468.064
	33	50	49.86702	31.56964	-1.507058	1	31.6056	-2.733085	-0.0027983	-0.599783	10	0.0003165	0.0100039	1468.426
	34	52	38.42213	31.98504	-1.210582	1	32.00794	-2.167519	-0.0027748	-0.5997848	10	0.0003124	0.0099981	1468.426
	35	53	31.25	32.21995	-1.047285	1	32.23697	-1.8617	-0.0027514	-0.5997834	10	0.0003102	0.0100002	1468.426
	36	55	24.93351	24.38966	-0.5143159	1	24.39508	-1.208043	-0.0033841	-0.5997828	10	0.0004099	0.0099997	1468.426
	37	57	20.03205	24.95274	-0.4195804	1	24.95626	-0.963338	-0.0033234	-0.5997781	10	0.0004007	0.0099995	1467.974
	38	58	15.625	25.41253	-0.3187319	1	25.41453	-0.7185838	-0.0032858	-0.5997821	10	0.0003935	0.0100018	1468.426
	39	60	12.46675	25.9789	-0.2489921	1	25.98009	-0.5491288	-0.0032231	-0.5997818	10	0.0003849	0.0099992	1468.335
	40	62	9.9734	26.66889	-0.1845266	1	26.66953	-0.3964329	-0.0031583	-0.5997827	10	0.000375	0.0100001	1467.974
	41	64	7.971939	27.20967	-0.1040729	1	27.20987	-0.2191468	-0.0031127	-0.5997821	10	0.0003675	0.0099999	1467.883
	42	66	6.351626	27.86257	-0.0650844	1	27.86265	-0.1338375	-0.0030591	-0.5997826	10	0.0003589	0.01	1467.883
	43	68	5.013369	28.30496	-0.0224943	1	28.30497	-0.0455336	-0.0030114	-0.599779	10	0.0003533	0.0100006	1468.335
	44	70	3.985969	29.05203	-0.0193508	1	29.05203	-0.0381632	-0.0029456	-0.5997833	10	0.0003442	0.0100002	1467.883
	45	73	3.175813	29.79541	0.0104745	1	29.79541	0.0201422	-0.0028908	-0.5997834	10	0.0003356	0.0100002	1467.883
	46	75	2.516103	30.33624	0.1480124	1	30.3366	0.2795474	-0.0028406	-0.5997735	10	0.000319	0.0096986	1467.974
	47	79	1.99553	31.32236	0.1640833	1	31.32279	0.3001432	-0.0027636	-0.5997728	10	0.0003246	0.010181	1467.974
	48	84	1.587906	32.19777	0.3631569	1	32.19982	0.6462086	-0.0027089	-0.5997782	10	0.0003126	0.0100738	1467.974
	49	88	1.258052	27.86258	-0.4477902	1	27.86617	-0.9207433	-0.0029306	-0.5997725	10	0.0003598	0.010031	1468.516
	50	94	0.997765	29.49214	0.2068595	1	29.49287	0.4018691	-0.0028616	-0.5997724	10	0.0003394	0.0100131	1467.974
