EXPLAIN
TAG	EISPOT
TITLE	LABEL	Potentiostatic EIS	Test Identifier
DATE	LABEL	2/13/2024	Date
TIME	LABEL	9:01:16	Time
NOTES	NOTES	1	Notes...
	
PSTAT	PSTAT	IFC1010-36068	Potentiostat
VDC	POTEN	-6.00000E-001	F	A Potential (V)
FREQINIT	QUANT	1.00000E+005	Initial Freq. (Hz)
FREQFINAL	QUANT	1.00000E+000	Final Freq. (Hz)
PTSPERDEC	QUANT	1.00000E+001	Points/decade
VAC	QUANT	1.00000E+001	AC Voltage (mV rms)
AREA	QUANT	1.00000E+000	Sample Area (cm^2)
SPEED	SELECTOR	1	Optimize for:
DRIFTCOR	SELECTOR	0	Drift Correction
THD	SELECTOR	0	THD
ZGUESS	QUANT	1.00000E+002	Estimated Z (ohms)
EOC	QUANT	0.3246219	Open Circuit (V)
SEQUENCER	TOGGLE	TRUE	Run as Sequence
PSTATMODEL	IQUANT	64	Pstat Model
PSTATSECTION	LABEL	IFC1010-36068	Pstat Section
PSTATSERIALNO	LABEL	36068	Pstat Serial Number
CTRLMODE	IQUANT	1	Control Mode
ELECTROMETER	IQUANT	0	RE=0 or CS=1
IESTAB	IQUANT	0	I/E Stability
CASPEED	IQUANT	3	Control Amp Speed
CONVENTION	IQUANT	1	Current Convention
ICHRANGE	IQUANT	2	Ich Range
ICHRANGEMODE	TOGGLE	F	Ich Auto Range
ICHOFFSETENABLE	TOGGLE	T	Ich Offset Enable
ICHOFFSET	QUANT	0	Ich Offset (V)
ICHFILTER	IQUANT	4	Ich Filter
VCHRANGE	IQUANT	2	Vch Range
VCHRANGEMODE	TOGGLE	F	Vch Auto Range
VCHOFFSETENABLE	TOGGLE	T	Vch Offset Enable
VCHOFFSET	QUANT	0	Vch Offset (V)
VCHFILTER	IQUANT	4	Vch Filter
IERANGELOWERLIMIT	IQUANT	4	I/E Range Lower Limit
IERANGEMODE	TOGGLE	F	I/E AutoRange
IERANGE	IQUANT	11	I/E Range
ACHSELECT	IQUANT	0	Ach Select
ACHRANGE	IQUANT	2	Ach Range
ACHOFFSETENABLE	TOGGLE	F	Ach Offset Enable
ACHOFFSET	QUANT	0	Ach Offset (V)
ACHFILTER	IQUANT	1	Ach Filter
SENSECABLEID	IQUANT	13	Sense Cable ID
PWRCABLEID	IQUANT	13	Power Cable ID
DCCALDATE	LABEL	8/11/2023	DC Calibration Date
ACCALDATE	LABEL	6/2/2023	AC Calibration Date
FRAMEWORKVERSION	LABEL	7.10.3	Framework Version
INSTRUMENTVERSION	LABEL	4.91	Instrument Version
COMMVERSION	LABEL	3.10	Communications Version
CPUPLDVERSION	LABEL	2.22	CPU PLD Version
CTRLPLDVERSION	LABEL	0.00	CTRL PLD Version
PSTATPLDVERSION	LABEL	0.00	PSTAT PLD Version
ZCURVE	TABLE
	Pt	Time	Freq	Zreal	Zimag	Zsig	Zmod	Zphz	Idc	Vdc	IERange	Imod	Vmod	Temp
	#	s	Hz	ohm	ohm	V	ohm	°	A	V	#	A	V	°C
	0	3	100019.5	16.98024	-0.976802	1	17.00831	-3.292358	-0.0025818	-0.5997827	10	0.0005899	0.0100071	1467.612
	1	5	79511.72	17.50055	-0.9184011	1	17.52463	-3.004036	-0.0025093	-0.5997865	10	0.0006336	0.0110841	1468.245
	2	6	63105.47	17.71718	-0.9127231	1	17.74067	-2.949059	-0.0024871	-0.5997902	10	0.0006046	0.0107125	1467.612
	3	8	50214.84	17.88094	-0.96548	1	17.90699	-3.090679	-0.0024367	-0.599789	10	0.0005832	0.0104353	1468.245
	4	9	39902.34	18.33323	-1.055755	1	18.36361	-3.295849	-0.0023654	-0.5997873	10	0.0005596	0.0102708	1467.612
	5	11	31699.22	18.61374	-1.125383	1	18.64773	-3.459878	-0.0023469	-0.5997881	10	0.0005449	0.0101573	1468.245
	6	12	25136.72	19.23184	-1.272842	1	19.27391	-3.786548	-0.0022818	-0.5996696	10	0.0005244	0.0101052	1467.612
	7	13	19980.47	18.559	-1.3652	1	18.60914	-4.207101	-0.0023431	-0.5996711	10	0.0005407	0.0100605	1468.245
	8	15	15878.91	18.96925	-1.525023	1	19.03046	-4.596378	-0.0023197	-0.5996732	10	0.000527	0.0100278	1467.703
	9	16	12597.66	19.71338	-1.771048	1	19.79278	-5.133664	-0.0022684	-0.5997882	10	0.000506	0.0100138	1467.793
	10	18	10019.53	20.48292	-2.064769	1	20.58673	-5.756223	-0.002213	-0.5997907	10	0.0004853	0.0099913	1468.245
	11	19	7928.241	20.89075	-2.344193	1	21.02186	-6.402492	-0.0021929	-0.5997137	10	0.0004769	0.0100244	1467.703
	12	21	6307.871	20.61912	-2.704323	1	20.79571	-7.472039	-0.0022257	-0.5997145	10	0.0004806	0.0099953	1468.245
	13	22	5034.722	21.21282	-3.193954	1	21.45193	-8.562542	-0.002182	-0.5997328	10	0.0004504	0.0097057	1467.522
	14	23	3993.056	21.8631	-3.716873	1	22.1768	-9.64842	-0.0021513	-0.5997308	10	0.0004581	0.010188	1468.155
	15	25	3144.055	22.96871	-4.364404	1	23.37969	-10.75881	-0.0021073	-0.5997885	10	0.00043	0.0100696	1467.612
	16	26	2519.531	24.08328	-5.055879	1	24.60825	-11.85611	-0.0020617	-0.5997889	10	0.0004058	0.0099972	1467.703
	17	28	2000.762	25.24926	-5.726491	1	25.8905	-12.77842	-0.0020345	-0.5997891	10	0.0003861	0.0100037	1468.155
	18	29	1580.669	21.94181	-5.614208	1	22.64867	-14.35224	-0.0023722	-0.5997859	10	0.0004417	0.0100074	1467.522
	19	31	1253.634	23.3465	-6.355435	1	24.19609	-15.22818	-0.0023317	-0.5997865	10	0.0004134	0.0100054	1468.064
	20	32	1000.702	24.76112	-6.877545	1	25.69851	-15.52294	-0.0023119	-0.5997307	10	0.0003891	0.0100011	1467.612
	21	33	790.0281	26.45638	-7.335096	1	27.45439	-15.49617	-0.0022835	-0.5997297	10	0.0003641	0.0099981	1468.155
	22	35	628.811	27.93641	-7.499453	1	28.9255	-15.02662	-0.0022811	-0.5997874	10	0.0003455	0.0099942	1468.155
	23	36	502.2321	29.15296	-7.391027	1	30.07528	-14.22621	-0.0023009	-0.5997886	10	0.0003169	0.0095415	1468.155
	24	38	400.1524	30.91893	-7.201602	1	31.74655	-13.1115	-0.0022783	-0.5997869	10	0.0003227	0.0102476	1468.245
	25	39	315.5048	32.52735	-6.769267	1	33.22426	-11.75602	-0.0022616	-0.5997884	10	0.0003043	0.0101104	1467.703
	26	40	252.0161	33.68586	-6.178298	1	34.24775	-10.39307	-0.002259	-0.5997832	10	0.0002935	0.0100511	1468.245
	27	42	200.3205	34.80262	-5.493124	1	35.23346	-8.969372	-0.0022528	-0.5997824	10	0.0002834	0.0099844	1468.245
	28	43	158.0056	29.40301	-3.729004	1	29.63853	-7.227886	-0.0025941	-0.5997823	10	0.0003366	0.0099758	1467.612
	29	44	125.558	30.59262	-3.275084	1	30.76743	-6.11051	-0.0025504	-0.5997872	10	0.0003208	0.0098681	1468.245
	30	46	99.734	30.54885	-2.71893	1	30.66961	-5.086078	-0.0025816	-0.5997819	10	0.0003186	0.0097694	1468.155
	31	47	79.44915	31.41728	-2.333665	1	31.50383	-4.24811	-0.002546	-0.5997843	10	0.0003259	0.0102663	1467.793
	32	49	62.91946	32.66978	-1.985239	1	32.73004	-3.477407	-0.0024724	-0.599779	10	0.0003055	0.0099994	1468.245
	33	50	49.86702	33.52575	-1.691396	1	33.56839	-2.88816	-0.0024389	-0.5997861	10	0.000298	0.0100035	1467.793
	34	52	38.42213	32.88462	-1.269407	1	32.90911	-2.210625	-0.0024782	-0.5997851	10	0.0003038	0.0099992	1468.245
	35	53	31.25	33.62024	-1.059438	1	33.63693	-1.804902	-0.0024368	-0.599784	10	0.0002973	0.0099999	1467.703
	36	55	24.93351	34.25951	-0.875508	1	34.2707	-1.463885	-0.0024119	-0.599785	10	0.0002918	0.010001	1468.245
	37	56	20.03205	34.47557	-0.6918343	1	34.48251	-1.149622	-0.0024004	-0.59978	10	0.00029	0.01	1467.793
	38	58	15.625	35.327	-0.5136915	1	35.33073	-0.8330819	-0.0023525	-0.5997852	10	0.000283	0.0099997	1467.703
	39	59	12.46675	35.4928	-0.3266181	1	35.4943	-0.5272424	-0.0023458	-0.5997853	10	0.0002817	0.0100003	1468.245
	40	61	9.9734	36.72854	-0.2066547	1	36.72912	-0.3223737	-0.0022847	-0.5997834	10	0.0002723	0.0100004	1467.793
	41	63	7.971939	37.04691	0.0495786	1	37.04695	0.0766768	-0.0022448	-0.5997848	10	0.0002699	0.0100001	1467.703
	42	65	6.351626	37.29239	-0.0490489	1	37.29242	-0.0753583	-0.0022333	-0.5997842	10	0.0002682	0.01	1467.703
	43	67	5.013369	37.05455	0.0008858	1	37.05455	0.0013696	-0.0022719	-0.5997786	10	0.0002699	0.0099999	1467.703
	44	69	3.985969	38.40727	0.1145554	1	38.40744	0.1708927	-0.0022035	-0.5997852	10	0.0002604	0.0100002	1467.703
	45	72	3.175813	40.91441	0.286457	1	40.91541	0.4011425	-0.0020891	-0.5997852	10	0.0002444	0.0099999	1467.612
	46	76	2.516103	41.7751	0.59404	1	41.77932	0.8146886	-0.0020124	-0.599776	10	0.0002317	0.0096991	1468.335
	47	80	1.99553	44.80795	0.5691158	1	44.81157	0.7276873	-0.0019135	-0.5997753	10	0.0002269	0.010181	1468.335
	48	85	1.587906	46.95666	0.287411	1	46.95754	0.3506901	-0.0018444	-0.599782	10	0.0002144	0.0100737	1468.167
	49	91	1.258052	50.12935	0.4809718	1	50.13166	0.549714	-0.0017484	-0.5997772	10	0.0002	0.0100313	1467.793
	50	97	0.997765	53.57568	0.6163107	1	53.57922	0.659076	-0.001669	-0.5997782	10	0.0001868	0.010013	1468.245
