EXPLAIN
TAG	EISPOT
TITLE	LABEL	Potentiostatic EIS	Test Identifier
DATE	LABEL	2/13/2024	Date
TIME	LABEL	9:02:59	Time
NOTES	NOTES	1	Notes...
	
PSTAT	PSTAT	IFC1010-36068	Potentiostat
VDC	POTEN	-7.00000E-001	F	A Potential (V)
FREQINIT	QUANT	1.00000E+005	Initial Freq. (Hz)
FREQFINAL	QUANT	1.00000E+000	Final Freq. (Hz)
PTSPERDEC	QUANT	1.00000E+001	Points/decade
VAC	QUANT	1.00000E+001	AC Voltage (mV rms)
AREA	QUANT	1.00000E+000	Sample Area (cm^2)
SPEED	SELECTOR	1	Optimize for:
DRIFTCOR	SELECTOR	0	Drift Correction
THD	SELECTOR	0	THD
ZGUESS	QUANT	1.00000E+002	Estimated Z (ohms)
EOC	QUANT	0.3246219	Open Circuit (V)
SEQUENCER	TOGGLE	TRUE	Run as Sequence
PSTATMODEL	IQUANT	64	Pstat Model
PSTATSECTION	LABEL	IFC1010-36068	Pstat Section
PSTATSERIALNO	LABEL	36068	Pstat Serial Number
CTRLMODE	IQUANT	1	Control Mode
ELECTROMETER	IQUANT	0	RE=0 or CS=1
IESTAB	IQUANT	0	I/E Stability
CASPEED	IQUANT	3	Control Amp Speed
CONVENTION	IQUANT	1	Current Convention
ICHRANGE	IQUANT	2	Ich Range
ICHRANGEMODE	TOGGLE	F	Ich Auto Range
ICHOFFSETENABLE	TOGGLE	T	Ich Offset Enable
ICHOFFSET	QUANT	0	Ich Offset (V)
ICHFILTER	IQUANT	4	Ich Filter
VCHRANGE	IQUANT	2	Vch Range
VCHRANGEMODE	TOGGLE	F	Vch Auto Range
VCHOFFSETENABLE	TOGGLE	T	Vch Offset Enable
VCHOFFSET	QUANT	0	Vch Offset (V)
VCHFILTER	IQUANT	4	Vch Filter
IERANGELOWERLIMIT	IQUANT	4	I/E Range Lower Limit
IERANGEMODE	TOGGLE	F	I/E AutoRange
IERANGE	IQUANT	11	I/E Range
ACHSELECT	IQUANT	0	Ach Select
ACHRANGE	IQUANT	2	Ach Range
ACHOFFSETENABLE	TOGGLE	F	Ach Offset Enable
ACHOFFSET	QUANT	0	Ach Offset (V)
ACHFILTER	IQUANT	1	Ach Filter
SENSECABLEID	IQUANT	13	Sense Cable ID
PWRCABLEID	IQUANT	13	Power Cable ID
DCCALDATE	LABEL	8/11/2023	DC Calibration Date
ACCALDATE	LABEL	6/2/2023	AC Calibration Date
FRAMEWORKVERSION	LABEL	7.10.3	Framework Version
INSTRUMENTVERSION	LABEL	4.91	Instrument Version
COMMVERSION	LABEL	3.10	Communications Version
CPUPLDVERSION	LABEL	2.22	CPU PLD Version
CTRLPLDVERSION	LABEL	0.00	CTRL PLD Version
PSTATPLDVERSION	LABEL	0.00	PSTAT PLD Version
ZCURVE	TABLE
	Pt	Time	Freq	Zreal	Zimag	Zsig	Zmod	Zphz	Idc	Vdc	IERange	Imod	Vmod	Temp
	#	s	Hz	ohm	ohm	V	ohm	°	A	V	#	A	V	°C
	0	3	100019.5	13.39056	-0.8126408	1	13.41519	-3.472884	-0.0070655	-0.6996854	10	0.0006745	0.0090252	1467.612
	1	5	79511.72	13.91557	-0.7520678	1	13.93588	-3.093544	-0.0068602	-0.6996835	10	0.0008152	0.0113398	1467.522
	2	6	63105.47	14.81346	-0.8102218	1	14.8356	-3.130671	-0.0064814	-0.6995653	10	0.0007402	0.0109671	1468.155
	3	8	50214.84	15.52091	-0.6734614	1	15.53552	-2.484539	-0.006275	-0.6997223	11	0.0007005	0.0108749	1467.522
	4	10	39902.34	16.39737	-0.8859315	1	16.42129	-3.092619	-0.0060314	-0.6995711	10	0.0006125	0.010052	1468.245
	5	11	31699.22	16.51459	-0.9250385	1	16.54047	-3.205982	-0.0060333	-0.6995688	10	0.0006171	0.0102034	1467.612
	6	13	25136.72	15.34211	-0.974201	1	15.37301	-3.633319	-0.0064279	-0.6995707	10	0.0006562	0.0100859	1468.155
	7	14	19980.47	16.2699	-1.082013	1	16.30584	-3.804795	-0.0060916	-0.6997243	11	0.0006198	0.0101058	1468.155
	8	16	15878.91	17.12482	-1.336561	1	17.1769	-4.462784	-0.0058654	-0.6996887	10	0.0005835	0.0100221	1467.431
	9	17	12597.66	18.01203	-1.521126	1	18.07615	-4.827208	-0.005689	-0.6996912	10	0.0005537	0.0100079	1468.155
	10	19	10019.53	19.03078	-1.752709	1	19.11132	-5.262019	-0.0054763	-0.6996921	10	0.0005242	0.0100179	1468.245
	11	20	7928.241	13.3393	-1.558299	1	13.43001	-6.663101	-0.007454	-0.6996185	10	0.000745	0.0100046	1468.245
	12	22	6307.871	14.29674	-1.856481	1	14.41677	-7.398656	-0.0070918	-0.6996152	10	0.0006939	0.0100038	1468.155
	13	23	5034.722	15.3114	-2.081502	1	15.45224	-7.741592	-0.0068273	-0.6996504	11	0.0006251	0.0097019	1468.155
	14	25	3993.056	16.54689	-2.375094	1	16.71648	-8.168283	-0.0065301	-0.6996495	11	0.0006075	0.010183	1467.431
	15	26	3144.055	17.31146	-2.636516	1	17.51108	-8.659538	-0.0064444	-0.6996873	10	0.0005741	0.0100699	1468.155
	16	28	2519.531	18.88776	-2.923882	1	19.11273	-8.799711	-0.0061076	-0.6996887	10	0.0005241	0.0100269	1467.431
	17	29	2000.762	19.90637	-3.077177	1	20.14281	-8.787374	-0.0060002	-0.6996891	10	0.0004961	0.0100003	1468.064
	18	31	1580.669	20.81902	-3.143694	1	21.05503	-8.586854	-0.0059263	-0.6996905	10	0.0004748	0.010002	1468.155
	19	32	1253.634	22.69892	-3.26776	1	22.93293	-8.192076	-0.0056277	-0.6996881	10	0.0004359	0.0099982	1468.064
	20	34	1000.702	24.42753	-3.285256	1	24.64746	-7.659742	-0.0054006	-0.6996342	10	0.0004055	0.0099953	1468.155
	21	35	790.0281	18.05853	-2.035496	1	18.17289	-6.431042	-0.00718	-0.6996303	10	0.0005499	0.0099941	1467.522
	22	36	628.811	19.00782	-1.885415	1	19.1011	-5.664728	-0.0069916	-0.6996836	10	0.0005229	0.0099887	1468.064
	23	38	502.2321	20.04004	-1.739595	1	20.1154	-4.96118	-0.0067799	-0.6996863	10	0.0004751	0.00957	1468.245
	24	39	400.1524	21.05763	-1.572369	1	21.11625	-4.270341	-0.0065402	-0.6996868	10	0.0004852	0.0102469	1467.793
	25	41	315.5048	22.18856	-1.404597	1	22.23298	-3.622147	-0.0063218	-0.6996885	10	0.0004547	0.0101075	1468.245
	26	42	252.0161	22.98525	-1.246147	1	23.01901	-3.103256	-0.0061689	-0.6996841	10	0.0004352	0.010017	1467.703
	27	43	200.3205	24.04965	-1.088862	1	24.07429	-2.592331	-0.0059677	-0.6996845	10	0.0004161	0.0100159	1468.335
	28	45	158.0056	23.915	-0.9274408	1	23.93297	-2.220859	-0.006009	-0.6996838	10	0.0004155	0.0099429	1468.245
	29	46	125.558	22.95274	-0.7442008	1	22.96481	-1.857061	-0.0062326	-0.6996889	10	0.0004311	0.0098989	1468.245
	30	48	99.734	23.42791	-0.6511423	1	23.43695	-1.592037	-0.0061133	-0.6996844	10	0.0004156	0.0097405	1468.245
	31	49	79.44915	23.39154	-0.5230951	1	23.39738	-1.281068	-0.0061717	-0.6996853	10	0.0004396	0.0102852	1467.793
	32	50	62.91946	23.64307	-0.6094416	1	23.65092	-1.476572	-0.0060462	-0.6996808	10	0.0004229	0.0100027	1468.245
	33	52	49.86702	25.43609	-0.3985617	1	25.43921	-0.8977023	-0.0057588	-0.6996878	10	0.0003931	0.0100011	1467.793
	34	53	38.42213	24.42319	-0.2758157	1	24.42475	-0.6470243	-0.005994	-0.6996873	10	0.0004094	0.0099993	1467.793
	35	55	31.25	25.48265	-0.2746539	1	25.48413	-0.6175143	-0.0057863	-0.6996862	10	0.0003924	0.01	1467.703
	36	56	24.93351	26.03265	-0.4160079	1	26.03597	-0.9155222	-0.0056849	-0.699686	10	0.0003841	0.0100015	1468.155
	37	58	20.03205	26.91783	-0.6215194	1	26.925	-1.322696	-0.0055122	-0.6996828	10	0.0003714	0.0099998	1467.793
	38	59	15.625	28.50181	-0.2585163	1	28.50298	-0.5196682	-0.0052834	-0.6996886	10	0.0003508	0.009999	1468.245
	39	61	12.46675	19.17123	-0.0201176	1	19.17124	-0.0601243	-0.0073794	-0.6996829	10	0.0005217	0.0100013	1468.155
	40	63	9.9734	20.679	-0.0226988	1	20.67901	-0.062892	-0.0069391	-0.6997052	11	0.0004836	0.0100007	1467.612
	41	65	7.971939	22.754	-0.080426	1	22.75414	-0.2025161	-0.0064283	-0.699685	10	0.0004395	0.0099998	1468.155
	42	68	6.351626	23.20996	-0.2063752	1	23.21088	-0.5094415	-0.0063212	-0.6996865	10	0.0004308	0.0099995	1467.703
	43	70	5.013369	23.99384	-0.1821579	1	23.99453	-0.4349732	-0.0061937	-0.6996813	10	0.0004167	0.0099996	1467.793
	44	73	3.985969	24.46215	-0.0586583	1	24.46222	-0.1373904	-0.0060834	-0.6996881	10	0.0004088	0.0099999	1467.703
	45	76	3.175813	25.69967	0.766949	1	25.71111	1.709357	-0.0058168	-0.6996868	10	0.0003889	0.0099999	1467.612
	46	80	2.516103	26.36026	-1.118733	1	26.38399	-2.430181	-0.005768	-0.6996773	10	0.0003669	0.0096999	1468.24
	47	83	1.99553	22.52983	-0.9150067	1	22.54841	-2.325682	-0.0063821	-0.6996763	10	0.000451	0.0101815	1468.155
	48	90	1.587906	27.34746	0.2789206	1	27.34888	0.5843474	-0.0057703	-0.6996825	10	0.000368	0.0100735	1467.703
	49	98	1.258052	22.43294	-0.5362852	1	22.43935	-1.36946	-0.0066401	-0.699674	10	0.0004468	0.0100309	1468.155
	50	107	0.997765	24.25845	0.0911582	1	24.25862	0.2153045	-0.0065596	-0.6996748	10	0.0004126	0.0100126	1467.703
