EXPLAIN
TAG	EISPOT
TITLE	LABEL	Potentiostatic EIS	Test Identifier
DATE	LABEL	21.7.2025	Date
TIME	LABEL	18:24:27	Time
NOTES	NOTES	1	Notes...
	
PSTAT	PSTAT	IFC1010-36105	Potentiostat
VDC	POTEN	2.55000E-001	F	A Potential (V)
FREQINIT	QUANT	1.00000E+005	Initial Freq. (Hz)
FREQFINAL	QUANT	1.00000E-003	Final Freq. (Hz)
PTSPERDEC	QUANT	1.00000E+001	Points/decade
VAC	QUANT	1.00000E+001	AC Voltage (mV rms)
AREA	QUANT	1.00000E+000	Sample Area (cm^2)
SPEED	SELECTOR	1	Optimize for:
DRIFTCOR	SELECTOR	0	Drift Correction
THD	SELECTOR	0	THD
ZGUESS	QUANT	1.00000E+002	Estimated Z (ohms)
EOC	QUANT	0	Open Circuit (V)
SEQUENCER	TOGGLE	TRUE	Run as Sequence
PSTATMODEL	IQUANT	64	Pstat Model
PSTATSECTION	LABEL	IFC1010-36105	Pstat Section
PSTATSERIALNO	LABEL	36105	Pstat Serial Number
CTRLMODE	IQUANT	1	Control Mode
ELECTROMETER	IQUANT	0	RE=0 or CS=1
IESTAB	IQUANT	0	I/E Stability
CASPEED	IQUANT	3	Control Amp Speed
CONVENTION	IQUANT	1	Current Convention
ICHRANGE	IQUANT	2	Ich Range
ICHRANGEMODE	TOGGLE	F	Ich Auto Range
ICHOFFSETENABLE	TOGGLE	T	Ich Offset Enable
ICHOFFSET	QUANT	0	Ich Offset (V)
ICHFILTER	IQUANT	4	Ich Filter
VCHRANGE	IQUANT	2	Vch Range
VCHRANGEMODE	TOGGLE	F	Vch Auto Range
VCHOFFSETENABLE	TOGGLE	T	Vch Offset Enable
VCHOFFSET	QUANT	0	Vch Offset (V)
VCHFILTER	IQUANT	4	Vch Filter
IERANGELOWERLIMIT	IQUANT	4	I/E Range Lower Limit
IERANGEMODE	TOGGLE	F	I/E AutoRange
IERANGE	IQUANT	11	I/E Range
ACHSELECT	IQUANT	0	Ach Select
ACHRANGE	IQUANT	2	Ach Range
ACHOFFSETENABLE	TOGGLE	F	Ach Offset Enable
ACHOFFSET	QUANT	0	Ach Offset (V)
ACHFILTER	IQUANT	1	Ach Filter
SENSECABLEID	IQUANT	13	Sense Cable ID
PWRCABLEID	IQUANT	13	Power Cable ID
DCCALDATE	LABEL	4/7/2025	DC Calibration Date
ACCALDATE	LABEL	6/2/2023	AC Calibration Date
FRAMEWORKVERSION	LABEL	7.10.3	Framework Version
INSTRUMENTVERSION	LABEL	4.91	Instrument Version
COMMVERSION	LABEL	3.10	Communications Version
CPUPLDVERSION	LABEL	2.24	CPU PLD Version
CTRLPLDVERSION	LABEL	0.00	CTRL PLD Version
PSTATPLDVERSION	LABEL	0.00	PSTAT PLD Version
ZCURVE	TABLE
	Pt	Time	Freq	Zreal	Zimag	Zsig	Zmod	Zphz	Idc	Vdc	IERange	Imod	Vmod	Temp
	#	s	Hz	ohm	ohm	V	ohm	°	A	V	#	A	V	°C
	0	3	100019.5	13.49806	-0.650997	1	13.51375	-2.761174	7.566107E-006	0.2551116	11	0.0010555	0.0142911	1488.419
	1	5	79511.72	13.44503	-0.8707442	1	13.4732	-3.705486	4.343857E-006	0.2550992	10	0.0007467	0.0100728	1489.059
	2	7	63105.47	13.41588	-0.8569281	1	13.44322	-3.654756	4.275535E-006	0.2550974	10	0.0008047	0.0108267	1488.328
	3	8	50214.84	13.42948	-0.8462054	1	13.45611	-3.6055	3.261286E-006	0.2550993	10	0.0007806	0.0105092	1488.968
	4	10	39902.34	13.45986	-0.8640526	1	13.48757	-3.673048	3.256055E-006	0.2550985	10	0.0007683	0.010366	1488.328
	5	11	31699.22	13.50657	-0.9097407	1	13.53717	-3.853361	4.262539E-006	0.2550967	10	0.0007532	0.0101987	1488.968
	6	13	25136.72	13.56685	-0.978627	1	13.6021	-4.12581	3.211928E-006	0.2550991	10	0.0007461	0.0101497	1488.328
	7	14	19980.47	13.64153	-1.073511	1	13.68371	-4.499578	3.207664E-006	0.2550989	10	0.0007366	0.01008	1489.059
	8	15	15878.91	13.72616	-1.201795	1	13.77868	-5.003775	4.206964E-006	0.2550935	10	0.0007304	0.010065	1488.328
	9	17	12597.66	13.82477	-1.358822	1	13.89139	-5.61351	3.189923E-006	0.2550978	10	0.0007196	0.0099961	1489.059
	10	18	10019.53	13.93805	-1.548175	1	14.02377	-6.338171	4.25775E-006	0.2550963	10	0.0007161	0.010043	1488.785
	11	20	7928.241	14.06639	-1.78647	1	14.17938	-7.237974	1.30649E-006	0.255077	10	0.0007043	0.0099867	1489.059
	12	21	6307.871	14.21035	-2.067289	1	14.35994	-8.277191	1.35518E-006	0.255078	10	0.0006977	0.0100192	1488.968
	13	23	5034.722	14.37184	-2.402133	1	14.5712	-9.488803	3.345488E-006	0.2550963	10	0.0006671	0.0097001	1488.51
	14	24	3993.056	14.55805	-2.814591	1	14.82764	-10.94231	3.325645E-006	0.2550983	10	0.0006877	0.0101846	1488.968
	15	26	3144.055	14.77636	-3.327681	1	15.14642	-12.69146	3.448757E-006	0.2551492	10	0.0006651	0.0100675	1488.968
	16	27	2519.531	15.00765	-3.900546	1	15.50626	-14.56905	3.509328E-006	0.2551483	10	0.0006469	0.0100269	1488.968
	17	29	2000.762	15.28016	-4.61931	1	15.96312	-16.82047	3.433315E-006	0.2551476	10	0.0006267	0.0100022	1488.419
	18	30	1580.669	15.59963	-5.5051	1	16.54251	-19.4379	3.437918E-006	0.2551466	10	0.0006047	0.0100018	1488.968
	19	32	1253.634	15.95165	-6.596418	1	17.26175	-22.46635	3.620912E-007	0.2551466	9	0.0005836	0.0100736	1488.328
	20	33	1000.702	16.35279	-7.833496	1	18.13222	-25.59587	3.502441E-007	0.2550948	9	0.0005496	0.0099646	1488.876
	21	34	790.0281	16.83723	-9.417109	1	19.29181	-29.21841	3.191012E-007	0.2550949	9	0.0005191	0.0100135	1488.876
	22	36	628.811	17.38907	-11.28912	1	20.7322	-32.99194	3.606542E-007	0.255148	9	0.0004808	0.0099671	1488.419
	23	37	502.2321	18.00956	-13.52641	1	22.5235	-36.90904	2.65954E-007	0.2551465	9	0.0004258	0.0096116	1488.876
	24	39	400.1524	18.74998	-16.27381	1	24.82738	-40.95594	2.511647E-007	0.2551471	9	0.000411	0.0102193	1488.419
	25	40	315.5048	19.6738	-19.79158	1	27.90636	-45.171	2.396973E-007	0.2551466	9	0.0003611	0.0100849	1488.968
	26	41	252.0161	20.71446	-23.84464	1	31.58569	-49.01831	2.3042E-007	0.2551368	9	0.0003167	0.0100088	1488.968
	27	43	200.3205	21.99298	-28.87847	1	36.29955	-52.70819	2.147804E-007	0.2551367	9	0.0002753	0.0099977	1488.968
	28	44	158.0056	23.58508	-35.24068	1	42.40474	-56.20729	1.941025E-007	0.2551371	9	0.0002347	0.009954	1488.968
	29	46	125.558	25.45777	-42.76437	1	49.76835	-59.23452	1.8003E-007	0.255148	9	0.0001992	0.009915	1488.419
	30	47	99.734	27.73204	-51.96061	1	58.89797	-61.91059	1.69128E-007	0.2551357	9	0.0001655	0.0097478	1488.968
	31	48	79.44915	30.39765	-62.90734	1	69.86667	-64.20956	-8.757593E-008	0.2551475	9	0.0001472	0.0102849	1488.968
	32	50	62.91946	33.83941	-76.67095	1	83.80656	-66.1853	-4.463004E-008	0.2551358	9	0.0001193	0.0099981	1488.602
	33	51	49.86702	38.00215	-93.43204	1	100.8648	-67.86667	-1.42943E-008	0.2551478	9	0.0000992	0.0100026	1488.968
	34	53	38.42213	43.76796	-116.4479	1	124.4015	-69.40083	1.218757E-008	0.2551495	9	8.03808E-005	0.0099996	1488.51
	35	54	31.25	49.47214	-138.7563	1	147.312	-70.37683	3.107954E-008	0.2551481	9	6.78846E-005	0.0100003	1488.968
	36	56	24.93351	56.83593	-168.0038	1	177.3573	-71.30925	8.914867E-008	0.2551478	9	5.636959E-005	0.0099976	1488.51
	37	57	20.03205	65.3638	-201.9235	1	212.2393	-72.06293	1.411207E-007	0.2551382	8	4.712876E-005	0.0100026	1488.51
	38	59	15.625	77.53958	-249.2575	1	261.0397	-72.72001	1.484504E-007	0.2551481	8	3.830505E-005	0.0099992	1488.51
	39	61	12.46675	90.9054	-301.6952	1	315.0933	-73.23164	1.487976E-007	0.255147	8	3.173527E-005	0.0099996	1488.51
	40	62	9.9734	106.873	-364.2132	1	379.5696	-73.64645	1.464105E-007	0.2551482	8	2.634301E-005	0.009999	1488.51
	41	64	7.971939	126.2801	-440.2365	1	457.99	-73.99467	1.430762E-007	0.2551483	8	2.18355E-005	0.0100004	1488.51
	42	66	6.351626	150.0071	-533.5972	1	554.2816	-74.29804	1.394892E-007	0.2551488	8	1.804083E-005	0.0099997	1488.419
	43	68	5.013369	180.2662	-652.0135	1	676.4744	-74.54515	1.361864E-007	0.2551369	8	1.478257E-005	0.01	1488.51
	44	71	3.985969	216.3958	-792.2092	1	821.2324	-74.72208	1.263806E-007	0.2551476	8	1.217669E-005	0.0099999	1488.419
	45	73	3.175813	260.6859	-960.883	1	995.617	-74.82111	1.134377E-007	0.2551469	8	1.004403E-005	0.01	1488.419
	46	76	2.516103	317.4966	-1173.516	1	1215.707	-74.86098	9.881822E-008	0.2551323	8	7.858986E-006	0.0096896	1488.602
	47	80	1.99553	387.7036	-1429.413	1	1481.059	-74.82462	8.212494E-008	0.2551318	8	6.819955E-006	0.010188	1489.059
	48	84	1.587906	474.8561	-1736.238	1	1800.003	-74.70383	6.998066E-008	0.2551421	8	5.569059E-006	0.0100775	1488.693
	49	89	1.258052	587.0653	-2116.143	1	2196.066	-74.4948	5.569553E-008	0.2551311	7	4.553379E-006	0.010032	1488.51
	50	94	0.997765	730.2739	-2576.1	1	2677.609	-74.173	3.117889E-008	0.2551319	7	3.732693E-006	0.0100148	1489.059
	51	100	0.7927448	912.9874	-3127.483	1	3258.02	-73.7262	6.860633E-009	0.2551326	7	3.067482E-006	0.0100065	1488.51
	52	107	0.6290258	1150.588	-3797.009	1	3967.509	-73.14188	-2.075451E-008	0.2551315	7	2.519353E-006	0.0100034	1488.602
	53	115	0.4988825	1460.279	-4604.614	1	4830.619	-72.40441	-5.133473E-008	0.2551319	7	2.069474E-006	0.0100018	1488.602
	54	124	0.3985969	1849.569	-5538.871	1	5839.52	-71.53453	-8.716196E-008	0.2551426	7	1.712163E-006	0.0100013	1489.059
	55	136	0.316723	2370.807	-6679.489	1	7087.757	-70.45827	-1.28399E-007	0.255143	7	1.410733E-006	0.0100009	1489.059
	56	150	0.2514753	3057.451	-8035.194	1	8597.229	-69.16781	-1.767124E-007	0.2551434	7	1.163099E-006	0.0100007	1488.602
	57	168	0.1999787	3964.577	-9614.74	1	10400.05	-67.5915	-2.328864E-007	0.2551438	7	9.615218E-007	0.0100007	1488.602
	58	189	0.1587906	5166.576	-11458.88	1	12569.78	-65.73035	-2.917164E-007	0.2551434	7	7.955835E-007	0.0100008	1488.602
	59	215	0.1260081	6746.061	-13558.67	1	15144.2	-63.54755	-3.56221E-007	0.2551435	7	6.60358E-007	0.0100009	1488.783
	60	245	0.1001603	8807.547	-15852.36	1	18134.78	-60.94352	-4.19106E-007	0.255143	7	5.514267E-007	0.0100002	1488.876
	61	281	0.0795031	11427.38	-18287.54	1	21564.3	-57.99988	-4.893428E-007	0.255143	7	4.637475E-007	0.0100005	1489.15
	62	321	0.0631398	14708.14	-20703.48	1	25396.13	-54.6093	-5.519962E-007	0.2551433	7	3.937633E-007	0.0100001	1489.15
	63	370	0.050123	18657.45	-23076.09	1	29675.02	-51.04381	-6.166956E-007	0.2551424	7	3.369973E-007	0.0100005	1489.15
	64	431	0.0398326	23185.4	-24784.17	1	33938.45	-46.90889	-7.081836E-007	0.2551418	7	2.946475E-007	0.0099999	1488.785
	65	508	0.0316381	28167.84	-26470.4	1	38653.71	-43.22057	-7.716818E-007	0.2551409	7	2.587064E-007	0.01	1488.785
	66	605	0.025126	33592.95	-27628.7	1	43495.19	-39.43576	-8.343561E-007	0.2551421	7	2.299149E-007	0.0100002	1489.15
	67	726	0.019957	39347.58	-28395.81	1	48523.75	-35.8167	-8.965838E-007	0.2551413	7	2.060912E-007	0.0100003	1489.15
	68	878	0.015849	45112.47	-27910.52	1	53048.39	-31.74455	-9.770008E-007	0.2551409	7	1.885017E-007	0.0099997	1489.15
	69	1132	0.01259	50633.25	-28328.23	1	58019.09	-29.22608	-1.033697E-006	0.2551419	7	1.723635E-007	0.0100004	1489.15
	70	1372	0.0100006	55867.59	-27558.26	1	62294.83	-26.25612	-1.073735E-006	0.2551406	7	1.605245E-007	0.0099998	1489.15
	71	1673	0.0079438	59643.09	-25797.84	1	64983.28	-23.39026	-1.124217E-006	0.2551393	7	1.538851E-007	0.01	1489.059
	72	2053	0.0063099	66424.12	-25721.89	1	71230.46	-21.16825	-1.142841E-006	0.2551396	7	1.403911E-007	0.0100001	1488.968
	73	2530	0.0050123	70771.02	-24323.87	1	74834.4	-18.96775	-1.153388E-006	0.2551396	7	1.336199E-007	0.0099994	1488.968
	74	3130	0.0039811	74415.45	-22920.51	1	77865.32	-17.11922	-1.175425E-006	0.2551392	7	1.284311E-007	0.0100003	1488.785
	75	3885	0.0031624	76961.28	-20743.83	1	79707.88	-15.08479	-1.208769E-006	0.2551371	7	1.254615E-007	0.0100003	1488.693
	76	4835	0.002512	79511.5	-19778.49	1	81934.53	-13.96882	-1.243716E-006	0.2551347	7	1.220495E-007	0.0100001	1488.602
	77	6031	0.0019953	81170.57	-18129.73	1	83170.6	-12.59056	-1.275147E-006	0.2551329	7	1.202273E-007	0.0099994	1488.51
	78	7536	0.0015849	80292.9	-16041.79	1	81879.72	-11.29841	-1.329836E-006	0.2551309	7	1.221319E-007	0.0100001	1488.419
	79	10062	0.0012589	80542.36	-15628.98	1	82044.73	-10.98158	-1.393063E-006	0.2551285	7	1.218862E-007	0.0100001	1488.236
	80	12447	0.001	81858.29	-15357.42	1	83286.43	-10.62574	-1.409577E-006	0.2551264	7	1.200675E-007	0.01	1488.145
