EXPLAIN
TAG	EISPOT
TITLE	LABEL	Potentiostatic EIS	Test Identifier
DATE	LABEL	21.7.2025	Date
TIME	LABEL	11:21:56	Time
NOTES	NOTES	1	Notes...
	
PSTAT	PSTAT	IFC1010-36105	Potentiostat
VDC	POTEN	2.55000E-001	F	A Potential (V)
FREQINIT	QUANT	1.00000E+005	Initial Freq. (Hz)
FREQFINAL	QUANT	1.00000E-003	Final Freq. (Hz)
PTSPERDEC	QUANT	1.00000E+001	Points/decade
VAC	QUANT	1.00000E+001	AC Voltage (mV rms)
AREA	QUANT	1.00000E+000	Sample Area (cm^2)
SPEED	SELECTOR	1	Optimize for:
DRIFTCOR	SELECTOR	0	Drift Correction
THD	SELECTOR	0	THD
ZGUESS	QUANT	1.00000E+002	Estimated Z (ohms)
EOC	QUANT	0	Open Circuit (V)
SEQUENCER	TOGGLE	TRUE	Run as Sequence
PSTATMODEL	IQUANT	64	Pstat Model
PSTATSECTION	LABEL	IFC1010-36105	Pstat Section
PSTATSERIALNO	LABEL	36105	Pstat Serial Number
CTRLMODE	IQUANT	1	Control Mode
ELECTROMETER	IQUANT	0	RE=0 or CS=1
IESTAB	IQUANT	0	I/E Stability
CASPEED	IQUANT	3	Control Amp Speed
CONVENTION	IQUANT	1	Current Convention
ICHRANGE	IQUANT	2	Ich Range
ICHRANGEMODE	TOGGLE	F	Ich Auto Range
ICHOFFSETENABLE	TOGGLE	T	Ich Offset Enable
ICHOFFSET	QUANT	0	Ich Offset (V)
ICHFILTER	IQUANT	4	Ich Filter
VCHRANGE	IQUANT	2	Vch Range
VCHRANGEMODE	TOGGLE	F	Vch Auto Range
VCHOFFSETENABLE	TOGGLE	T	Vch Offset Enable
VCHOFFSET	QUANT	0	Vch Offset (V)
VCHFILTER	IQUANT	4	Vch Filter
IERANGELOWERLIMIT	IQUANT	4	I/E Range Lower Limit
IERANGEMODE	TOGGLE	F	I/E AutoRange
IERANGE	IQUANT	11	I/E Range
ACHSELECT	IQUANT	0	Ach Select
ACHRANGE	IQUANT	2	Ach Range
ACHOFFSETENABLE	TOGGLE	F	Ach Offset Enable
ACHOFFSET	QUANT	0	Ach Offset (V)
ACHFILTER	IQUANT	1	Ach Filter
SENSECABLEID	IQUANT	13	Sense Cable ID
PWRCABLEID	IQUANT	13	Power Cable ID
DCCALDATE	LABEL	4/7/2025	DC Calibration Date
ACCALDATE	LABEL	6/2/2023	AC Calibration Date
FRAMEWORKVERSION	LABEL	7.10.3	Framework Version
INSTRUMENTVERSION	LABEL	4.91	Instrument Version
COMMVERSION	LABEL	3.10	Communications Version
CPUPLDVERSION	LABEL	2.24	CPU PLD Version
CTRLPLDVERSION	LABEL	0.00	CTRL PLD Version
PSTATPLDVERSION	LABEL	0.00	PSTAT PLD Version
ZCURVE	TABLE
	Pt	Time	Freq	Zreal	Zimag	Zsig	Zmod	Zphz	Idc	Vdc	IERange	Imod	Vmod	Temp
	#	s	Hz	ohm	ohm	V	ohm	°	A	V	#	A	V	°C
	0	3	100019.5	12.45531	-1.358563	1	12.52918	-6.224927	3.568402E-008	0.255095	10	0.0010534	0.0132196	1487.724
	1	5	79511.72	12.47193	-1.36322	1	12.54621	-6.23784	1.196507E-006	0.2550943	10	0.0008977	0.0112762	1487.78
	2	6	63105.47	12.52007	-1.461344	1	12.60507	-6.657444	2.719668E-007	0.2550918	10	0.0008637	0.0108951	1487.78
	3	8	50214.84	12.61083	-1.569297	1	12.7081	-7.093446	1.365878E-006	0.2550943	10	0.0008343	0.0106084	1487.871
	4	9	39902.34	12.72504	-1.717891	1	12.84048	-7.688494	1.666363E-007	0.2550908	10	0.0008076	0.0103737	1487.871
	5	11	31699.22	12.86465	-1.909529	1	13.0056	-8.442895	1.880589E-007	0.2550908	10	0.0007872	0.0102399	1487.871
	6	12	25136.72	13.03015	-2.150696	1	13.20645	-9.372473	2.474635E-007	0.255091	10	0.0007666	0.0101254	1487.825
	7	14	19980.47	13.22006	-2.43205	1	13.4419	-10.42396	1.559056E-007	0.2550904	10	0.0007492	0.0100711	1487.688
	8	15	15878.91	13.42747	-2.785047	1	13.71326	-11.71781	2.187642E-007	0.2550894	10	0.000732	0.0100393	1487.871
	9	17	12597.66	13.66562	-3.206443	1	14.03676	-13.20477	2.183419E-007	0.2550879	10	0.0007138	0.0100199	1487.231
	10	18	10019.53	13.92873	-3.701438	1	14.41216	-14.8819	1.33281E-006	0.2550924	10	0.0006929	0.0099863	1487.871
	11	19	7928.241	14.23942	-4.318559	1	14.87989	-16.8716	-9.753937E-007	0.2550467	10	0.0006706	0.0099785	1487.323
	12	21	6307.871	14.57719	-5.042512	1	15.4247	-19.08142	-1.103866E-006	0.2550486	10	0.0006482	0.0099982	1487.962
	13	22	5034.722	14.95511	-5.899551	1	16.07669	-21.52843	1.886524E-007	0.2550795	10	0.0006044	0.0096975	1487.323
	14	24	3993.056	15.40028	-7.039984	1	16.9331	-24.56673	-2.314774E-006	0.2550804	9	0.0006168	0.0104327	1487.871
	15	25	3144.055	15.93091	-8.344933	1	17.98421	-27.64645	-2.27823E-006	0.2551312	9	0.0005587	0.0100405	1487.323
	16	27	2519.531	16.50251	-9.8114	1	19.19886	-30.73317	-2.272664E-006	0.2551295	9	0.0005188	0.0099568	1487.78
	17	28	2000.762	17.20103	-11.64833	1	20.774	-34.10538	-2.285603E-006	0.2551304	9	0.0004808	0.0099854	1487.597
	18	30	1580.669	18.04782	-13.9184	1	22.79135	-37.63926	-2.30846E-006	0.2551303	9	0.0004365	0.009946	1487.323
	19	31	1253.634	19.04018	-16.61737	1	25.27183	-41.11292	-2.307321E-006	0.2551314	9	0.0003946	0.0099724	1487.688
	20	33	1000.702	20.19044	-19.77219	1	28.2594	-44.40035	-2.357291E-006	0.2550812	9	0.000353	0.0099739	1487.78
	21	34	790.0281	21.64376	-23.74245	1	32.12719	-47.64751	-2.334339E-006	0.2550801	9	0.0003097	0.0099481	1487.78
	22	35	628.811	23.32944	-28.3466	1	36.71229	-50.54539	-2.290923E-006	0.2551305	9	0.0002721	0.0099884	1487.14
	23	37	502.2321	25.32982	-33.76149	1	42.20708	-53.12065	-2.361445E-006	0.2551318	9	0.0002277	0.0096305	1487.78
	24	38	400.1524	27.75143	-40.29008	1	48.92271	-55.44129	-2.363903E-006	0.2551305	9	0.0002084	0.0102076	1487.871
	25	40	315.5048	30.82132	-48.45768	1	57.42909	-57.54176	-2.37459E-006	0.2551303	9	0.0001752	0.010073	1487.323
	26	41	252.0161	34.32123	-57.67306	1	67.1128	-59.24313	-2.368008E-006	0.2551212	9	0.0001494	0.0100305	1487.871
	27	42	200.3205	38.60106	-68.87036	1	78.95042	-60.72986	-2.36716E-006	0.2551206	9	0.0001265	0.0099892	1487.415
	28	44	158.0056	43.94901	-82.68894	1	93.64281	-62.00945	-2.377002E-006	0.2551214	9	0.0001062	0.0099477	1487.506
	29	45	125.558	50.15581	-98.6589	1	110.676	-63.0523	-2.375631E-006	0.2551313	9	8.952482E-005	0.0099095	1487.871
	30	46	99.734	57.60298	-117.6939	1	131.0342	-63.92146	-2.373091E-006	0.2551208	9	7.456931E-005	0.0097719	1487.323
	31	48	79.44915	66.15907	-139.8009	1	154.6652	-64.67472	-2.549524E-006	0.2551309	9	6.638224E-005	0.0102675	1487.871
	32	49	62.91946	77.37227	-167.3708	1	184.3894	-65.18982	-2.467177E-006	0.2551229	9	5.422675E-005	0.0099992	1487.506
	33	51	49.86702	88.94917	-199.3606	1	218.3039	-65.9549	-2.329304E-006	0.2551317	8	4.584119E-005	0.0100075	1487.962
	34	52	38.42213	105.0117	-242.3377	1	264.1118	-66.57158	-2.300691E-006	0.2551324	8	3.785595E-005	0.0099983	1487.415
	35	54	31.25	120.1879	-283.2393	1	307.6843	-67.00687	-2.288046E-006	0.2551314	8	3.249701E-005	0.0099989	1487.871
	36	55	24.93351	140.9041	-338.2602	1	366.4341	-67.38557	-2.283209E-006	0.2551305	8	2.728763E-005	0.0099992	1487.415
	37	57	20.03205	162.4588	-399.4726	1	431.2438	-67.86925	-2.270957E-006	0.2551221	8	2.318577E-005	0.0099988	1487.871
	38	58	15.625	192.709	-485.0896	1	521.9662	-68.33382	-2.262412E-006	0.2551317	8	1.915764E-005	0.0099997	1487.415
	39	60	12.46675	224.9836	-579.1495	1	621.3146	-68.77023	-2.251226E-006	0.2551311	8	1.60964E-005	0.0100009	1487.415
	40	62	9.9734	262.4893	-690.7802	1	738.9708	-69.19373	-2.246182E-006	0.2551311	8	1.353168E-005	0.0099995	1487.78
	41	64	7.971939	308.1193	-826.2117	1	881.7955	-69.548	-2.241703E-006	0.2551306	8	1.134085E-005	0.0100003	1487.871
	42	66	6.351626	364.0638	-991.813	1	1056.52	-69.84337	-2.240744E-006	0.255132	8	9.464407E-006	0.0099993	1487.415
	43	68	5.013369	436.168	-1200.466	1	1277.247	-70.03229	-2.237658E-006	0.2551214	8	7.829523E-006	0.0100002	1487.415
	44	70	3.985969	524.366	-1445.984	1	1538.125	-70.06753	-2.233807E-006	0.255131	8	6.501347E-006	0.0099999	1487.78
	45	73	3.175813	636.4019	-1739.257	1	1852.032	-69.9022	-2.227635E-006	0.2551307	8	5.399499E-006	0.01	1487.506
	46	76	2.516103	786.4646	-2105.038	1	2247.156	-69.51377	-2.225278E-006	0.2551164	8	4.252455E-006	0.0096914	1487.506
	47	79	1.99553	980.205	-2535.766	1	2718.623	-68.86589	-2.208796E-006	0.2551162	7	3.714979E-006	0.0101868	1487.506
	48	83	1.587906	1233.048	-3037.76	1	3278.474	-67.90742	-2.207022E-006	0.2551272	7	3.057546E-006	0.0100773	1487.415
	49	88	1.258052	1574.048	-3634.719	1	3960.911	-66.58454	-2.204729E-006	0.2551166	7	2.524712E-006	0.0100327	1487.962
	50	94	0.997765	2022.734	-4316.297	1	4766.747	-64.89093	-2.201617E-006	0.2551164	7	2.096688E-006	0.0100145	1487.506
	51	99	0.7927448	2607.069	-5071.034	1	5701.946	-62.79185	-2.200154E-006	0.255117	7	1.75272E-006	0.0100065	1487.415
	52	106	0.6290258	3363.104	-5899.125	1	6790.444	-60.31244	-2.19712E-006	0.255117	7	1.471942E-006	0.010003	1487.415
	53	114	0.4988825	4323.645	-6764.861	1	8028.527	-57.41602	-2.194748E-006	0.2551169	7	1.245176E-006	0.0100018	1487.962
	54	124	0.3985969	5460.917	-7601.54	1	9359.756	-54.30667	-2.185965E-006	0.2551272	7	1.068211E-006	0.0100013	1487.415
	55	135	0.316723	6858.385	-8397.687	1	10842.44	-50.76151	-2.179531E-006	0.2551277	7	9.221935E-007	0.0100008	1487.962
	56	150	0.2514753	8474.883	-9083.606	1	12423.19	-46.98555	-2.17208E-006	0.2551269	7	8.048978E-007	0.0100006	1487.506
	57	167	0.1999787	10234.16	-9604.99	1	14035.45	-43.18356	-2.163787E-006	0.2551265	7	7.124607E-007	0.0100005	1487.962
	58	189	0.1587906	12154.25	-9983.97	1	15729.13	-39.40102	-2.141598E-006	0.2551253	7	6.357817E-007	0.0100008	1487.506
	59	214	0.1260081	14125.43	-10114.3	1	17373.17	-35.60397	-2.119108E-006	0.2551268	7	5.756018E-007	0.0100003	1487.597
	60	244	0.1001603	16029.08	-10026.66	1	18906.75	-32.02721	-2.1084E-006	0.2551279	7	5.289096E-007	0.0100002	1488.13
	61	281	0.0795031	17910.06	-9874.65	1	20451.87	-28.86999	-2.088052E-006	0.2551267	7	4.889769E-007	0.0100006	1488.145
	62	333	0.0631398	19716.84	-9633.09	1	21944.25	-26.03883	-2.047648E-006	0.2551264	7	4.557085E-007	0.0100003	1488.145
	63	398	0.050123	21516.39	-9351.926	1	23460.9	-23.49178	-2.009819E-006	0.2551259	7	4.26245E-007	0.0100001	1488.145
	64	479	0.0398326	23178.46	-9092.781	1	24898.19	-21.4198	-1.973691E-006	0.2551258	7	4.016442E-007	0.0100002	1488.145
	65	581	0.0316381	24845.47	-8885.813	1	26386.64	-19.67924	-1.937254E-006	0.2551263	7	3.789853E-007	0.0100002	1488.145
	66	709	0.025126	26441.83	-8738.843	1	27848.48	-18.28837	-1.892641E-006	0.2551256	7	3.590866E-007	0.01	1488.145
	67	870	0.019957	28195.75	-8739.753	1	29519.21	-17.22171	-1.84133E-006	0.2551267	7	3.387608E-007	0.01	1488.145
	68	1072	0.015849	30028.85	-8848.987	1	31305.54	-16.41934	-1.781428E-006	0.2551276	7	3.194456E-007	0.0100004	1488.145
	69	1326	0.01259	31827.16	-8984.465	1	33070.96	-15.7638	-1.71708E-006	0.2551274	7	3.023766E-007	0.0099999	1488.133
	70	1646	0.0100006	33349.12	-9033.717	1	34551	-15.15673	-1.6703E-006	0.2551279	7	2.894325E-007	0.0100002	1488.236
	71	2047	0.0079438	35115.72	-9205.024	1	36302.16	-14.68868	-1.630882E-006	0.2551292	7	2.754588E-007	0.0099997	1488.236
	72	2552	0.0063099	37290.35	-9747.47	1	38543.27	-14.649	-1.574908E-006	0.2551286	7	2.59447E-007	0.0099999	1488.054
	73	3188	0.0050123	39001.75	-10084.7	1	40284.46	-14.49746	-1.525542E-006	0.2551297	7	2.482429E-007	0.0100003	1488.328
	74	3988	0.0039811	40561.89	-10322.27	1	41854.71	-14.27767	-1.476482E-006	0.2551305	7	2.389193E-007	0.0099999	1488.328
	75	4994	0.0031624	41788.18	-10592.75	1	43109.84	-14.22412	-1.459045E-006	0.2551324	7	2.319556E-007	0.0099996	1488.51
	76	6261	0.002512	42671.58	-11011.63	1	44069.48	-14.4698	-1.449404E-006	0.2551353	7	2.269288E-007	0.0100006	1488.785
	77	7855	0.0019953	43543.17	-11641.79	1	45072.6	-14.96861	-1.433028E-006	0.255139	7	2.218597E-007	0.0099998	1489.059
	78	9861	0.0015849	44230.45	-12203.95	1	45883.21	-15.42511	-1.421255E-006	0.2551454	7	2.179441E-007	0.01	1489.424
	79	12387	0.0012589	45262.24	-13368.88	1	47195.31	-16.4553	-1.388298E-006	0.2551482	7	2.118904E-007	0.0100002	1489.607
	80	15566	0.001	45652.66	-14007.15	1	47753.17	-17.05706	-1.366674E-006	0.2551497	7	2.094168E-007	0.0100003	1489.607
